Coverage Report by instance with details

=================================================================================
=== Instance: /\top#DUT /apb4_master
=== Design Unit: work.APB4_MASTER
=================================================================================
Branch Coverage:
    Enabled Coverage              Bins      Hits    Misses  Coverage
    ----------------              ----      ----    ------  --------
    Branches                        19        18         1    94.73%

================================Branch Details================================

Branch Coverage for instance /\top#DUT /apb4_master

    Line         Item                      Count     Source 
    ----         ----                      -----     ------ 
  File ../RTL/APB4_MASTER.v
------------------------------------IF Branch------------------------------------
    42                                       997     Count coming in to IF
    42              1                         36         if (!PRESETn)
    44              1                        961         else
Branch totals: 2 hits of 2 branches = 100.00%

------------------------------------CASE Branch------------------------------------
    49                                      1870     Count coming in to CASE
    50              1                        253             IDLE : begin
    57              1                        383             SETUP : ns = ACCESS;
    59              1                       1233             ACCESS : begin
    67              1                          1             default : ns = IDLE;
Branch totals: 4 hits of 4 branches = 100.00%

------------------------------------IF Branch------------------------------------
    51                                       253     Count coming in to IF
    51              1                        104                 if (TRANSFER)
    53              1                        149                 else
Branch totals: 2 hits of 2 branches = 100.00%

------------------------------------IF Branch------------------------------------
    60                                      1233     Count coming in to IF
    60              1                        543                 if (!PREADY_DECODER)
    62              1                        384                 else if (TRANSFER)
    64              1                        306                 else
Branch totals: 3 hits of 3 branches = 100.00%

------------------------------------CASE Branch------------------------------------
    72                                      1520     Count coming in to CASE
    73              1                        261             IDLE : begin
    81              1                        426             SETUP : begin
    89              1                        833             ACCESS : begin
    97              1                    ***0***             default : begin
Branch totals: 3 hits of 4 branches = 75.00%

------------------------------------IF Branch------------------------------------
    85                                       426     Count coming in to IF
    85              1                        238                 PSTRB   = (PWRITE_BUS)? PSTRB_BUS : 0;
    85              2                        188                 PSTRB   = (PWRITE_BUS)? PSTRB_BUS : 0;
Branch totals: 2 hits of 2 branches = 100.00%

------------------------------------IF Branch------------------------------------
    93                                       833     Count coming in to IF
    93              1                        476                 PSTRB   = (PWRITE_BUS)? PSTRB_BUS : 0;
    93              2                        357                 PSTRB   = (PWRITE_BUS)? PSTRB_BUS : 0;
Branch totals: 2 hits of 2 branches = 100.00%


FSM Coverage:
    Enabled Coverage              Bins      Hits    Misses  Coverage
    ----------------              ----      ----    ------  --------
    FSM States                       3         3         0   100.00%
    FSM Transitions                  5         5         0   100.00%

================================FSM Details================================

FSM Coverage for instance /\top#DUT /apb4_master --

FSM_ID: cs
    Current State Object : cs
    ----------------------
    State Value MapInfo :
    ---------------------
Line          State Name               Value
----          ----------               -----
  50                IDLE                   0
  57               SETUP                   1
  59              ACCESS                   2
    Covered States :
    ----------------
                   State           Hit_count
                   -----           ---------
                    IDLE                 157          
                   SETUP                 213          
                  ACCESS                 627          
    Covered Transitions :
    ---------------------
Line            Trans_ID           Hit_count          Transition          
----            --------           ---------          ----------          
  52                   0                  99          IDLE -> SETUP                 
  57                   1                 207          SETUP -> ACCESS               
  43                   2                   6          SETUP -> IDLE                 
  65                   3                  93          ACCESS -> IDLE                
  63                   4                 114          ACCESS -> SETUP               


    Summary                       Bins      Hits    Misses  Coverage
    -------                       ----      ----    ------  --------
        FSM States                   3         3         0   100.00%
        FSM Transitions              5         5         0   100.00%
Statement Coverage:
    Enabled Coverage              Bins      Hits    Misses  Coverage
    ----------------              ----      ----    ------  --------
    Statements                      36        30         6    83.33%

================================Statement Details================================

Statement Coverage for instance /\top#DUT /apb4_master --

    Line         Item                      Count     Source 
    ----         ----                      -----     ------ 
  File ../RTL/APB4_MASTER.v
    5                                                module APB4_MASTER #(
    6                                                    parameter  DATA_WIDTH = 32,
    7                                                    parameter  ADDR_WIDTH = 32,
    8                                                    localparam STRB_WIDTH = DATA_WIDTH/8
    9                                                ) (
    10                                                   input       wire                                PCLK,
    11                                                   input       wire                                PRESETn,
    12                                                   input       wire                                TRANSFER,
    13                                                   input       wire        [ADDR_WIDTH-1:0]        PADDR_BUS,
    14                                                   input       wire                                PWRITE_BUS,
    15                                                   input       wire        [DATA_WIDTH-1:0]        PWDATA_BUS,
    16                                                   input       wire        [STRB_WIDTH-1:0]        PSTRB_BUS,
    17                                                   input       wire                                PREADY_DECODER,
    18                                                   input       wire        [DATA_WIDTH-1:0]        PRDATA_DECODER,
    19                                                   input       wire                                PSLVERR_DECODER,
    20                                                   output      reg         [ADDR_WIDTH-1:0]        PADDR,
    21                                                   output      reg                                 PWRITE,
    22                                                   output      reg         [DATA_WIDTH-1:0]        PWDATA,
    23                                                   output      reg         [STRB_WIDTH-1:0]        PSTRB,
    24                                                   output      reg                                 PSELx,
    25                                                   output      reg                                 PENABLE,
    26                                                   output      wire                                PREADY,
    27                                                   output      wire        [DATA_WIDTH-1:0]        PRDATA,
    28                                                   output      wire                                PSLVERR
    29                                               );
    30                                               
    31                                               localparam  IDLE   = 2'b00,
    32                                                           SETUP  = 2'b01,
    33                                                           ACCESS = 2'b10;
    34                                               
    35                                               reg [1:0] cs, ns;
    36                                               
    37                                               assign PREADY  = PREADY_DECODER;
    38                                               assign PRDATA  = PRDATA_DECODER;
    39                                               assign PSLVERR = PSLVERR_DECODER;
    40                                               
    41              1                        997     always @(posedge PCLK or negedge PRESETn) begin
    42                                                   if (!PRESETn)
    43              1                         36             cs <= IDLE;
    44                                                   else
    45              1                        961             cs <= ns;
    46                                               end
    47                                               
    48              1                       1870     always @(*) begin
    49                                                   case (cs)
    50                                                       IDLE : begin
    51                                                           if (TRANSFER)
    52              1                        104                     ns = SETUP;
    53                                                           else
    54              1                        149                     ns = IDLE;
    55                                                       end
    56                                               
    57              1                        383             SETUP : ns = ACCESS;
    58                                               
    59                                                       ACCESS : begin
    60                                                           if (!PREADY_DECODER)
    61              1                        543                     ns = ACCESS;
    62                                                           else if (TRANSFER)
    63              1                        384                     ns = SETUP;
    64                                                           else
    65              1                        306                     ns = IDLE;
    66                                                       end
    67              1                          1             default : ns = IDLE;
    68                                                   endcase
    69                                               end
    70                                               
    71              1                       1520     always @(*) begin
    72                                                   case (cs)
    73                                                       IDLE : begin
    74              1                        261                 PADDR   = 0;
    75              1                        261                 PWRITE  = 0;
    76              1                        261                 PWDATA  = 0;
    77              1                        261                 PSTRB   = 0;
    78              1                        261                 PSELx   = 0;
    79              1                        261                 PENABLE = 0;
    80                                                       end
    81                                                       SETUP : begin
    82              1                        426                 PADDR   = PADDR_BUS;
    83              1                        426                 PWRITE  = PWRITE_BUS;
    84              1                        426                 PWDATA  = PWDATA_BUS;
    85              1                        426                 PSTRB   = (PWRITE_BUS)? PSTRB_BUS : 0;
    86              1                        426                 PSELx   = PADDR_BUS[ADDR_WIDTH-1];
    87              1                        426                 PENABLE = 0;
    88                                                       end
    89                                                       ACCESS : begin
    90              1                        833                 PADDR   = PADDR_BUS;
    91              1                        833                 PWRITE  = PWRITE_BUS;
    92              1                        833                 PWDATA  = PWDATA_BUS;
    93              1                        833                 PSTRB   = (PWRITE_BUS)? PSTRB_BUS : 0;
    94              1                        833                 PSELx   = PADDR_BUS[ADDR_WIDTH-1];
    95              1                        833                 PENABLE = 1;
    96                                                       end
    97                                                       default : begin
    98              1                    ***0***                 PADDR   = 0;
    99              1                    ***0***                 PWRITE  = 0;
    100             1                    ***0***                 PWDATA  = 0;
    101             1                    ***0***                 PSTRB   = 0;
    102             1                    ***0***                 PSELx   = 0;
    103             1                    ***0***                 PENABLE = 0;

Toggle Coverage:
    Enabled Coverage              Bins      Hits    Misses  Coverage
    ----------------              ----      ----    ------  --------
    Toggles                        430       426         4    99.06%

================================Toggle Details================================

Toggle Coverage for instance /\top#DUT /apb4_master --

                                              Node      1H->0L      0L->1H  "Coverage"
                                              ---------------------------------------
                                       PADDR[31-0]           1           1      100.00 
                                   PADDR_BUS[0-31]           1           1      100.00 
                                              PCLK           1           1      100.00 
                                           PENABLE           1           1      100.00 
                                      PRDATA[0-31]           1           1      100.00 
                              PRDATA_DECODER[0-31]           1           1      100.00 
                                            PREADY           1           1      100.00 
                                    PREADY_DECODER           1           1      100.00 
                                           PRESETn           1           1      100.00 
                                             PSELx           1           1      100.00 
                                           PSLVERR           0           0        0.00 
                                   PSLVERR_DECODER           0           0        0.00 
                                        PSTRB[3-0]           1           1      100.00 
                                    PSTRB_BUS[0-3]           1           1      100.00 
                                      PWDATA[31-0]           1           1      100.00 
                                  PWDATA_BUS[0-31]           1           1      100.00 
                                            PWRITE           1           1      100.00 
                                        PWRITE_BUS           1           1      100.00 
                                          TRANSFER           1           1      100.00 
                                           cs[1-0]           1           1      100.00 
                                           ns[1-0]           1           1      100.00 

Total Node Count     =        215 
Toggled Node Count   =        213 
Untoggled Node Count =          2 

Toggle Coverage      =      99.06% (426 of 430 bins)

=================================================================================
=== Instance: /\top#DUT /apb4_decoder
=== Design Unit: work.APB4_DECODER
=================================================================================
Branch Coverage:
    Enabled Coverage              Bins      Hits    Misses  Coverage
    ----------------              ----      ----    ------  --------
    Branches                         3         3         0   100.00%

================================Branch Details================================

Branch Coverage for instance /\top#DUT /apb4_decoder

    Line         Item                      Count     Source 
    ----         ----                      -----     ------ 
  File ../RTL/APB4_DECODER.v
------------------------------------CASE Branch------------------------------------
    23                                      1518     Count coming in to CASE
    24              1                        671             1'b0 : begin
    31              1                        844             1'b1 : begin
    38              1                          3             default : begin
Branch totals: 3 hits of 3 branches = 100.00%


Statement Coverage:
    Enabled Coverage              Bins      Hits    Misses  Coverage
    ----------------              ----      ----    ------  --------
    Statements                      16        16         0   100.00%

================================Statement Details================================

Statement Coverage for instance /\top#DUT /apb4_decoder --

    Line         Item                      Count     Source 
    ----         ----                      -----     ------ 
  File ../RTL/APB4_DECODER.v
    5                                                module APB4_DECODER #(
    6                                                    parameter DATA_WIDTH = 32
    7                                                ) (
    8                                                    input       wire                                PSELx,
    9                                                    input       wire        [DATA_WIDTH-1:0]        PRDATA0,
    10                                                   input       wire        [DATA_WIDTH-1:0]        PRDATA1,
    11                                                   input       wire                                PREADY0,
    12                                                   input       wire                                PREADY1,
    13                                                   input       wire                                PSLVERR0,
    14                                                   input       wire                                PSLVERR1,
    15                                                   output      reg                                 PSEL0,
    16                                                   output      reg                                 PSEL1,
    17                                                   output      reg         [DATA_WIDTH-1:0]        PRDATA,
    18                                                   output      reg                                 PREADY,
    19                                                   output      reg                                 PSLVERR
    20                                               );
    21                                               
    22              1                       1518     always @(*) begin
    23                                                   case (PSELx)
    24                                                       1'b0 : begin
    25              1                        671                 PSEL0   = 1;
    26              1                        671                 PSEL1   = 0;
    27              1                        671                 PRDATA  = PRDATA0;
    28              1                        671                 PREADY  = PREADY0;
    29              1                        671                 PSLVERR = PSLVERR0;
    30                                                       end
    31                                                       1'b1 : begin
    32              1                        844                 PSEL0   = 0;
    33              1                        844                 PSEL1   = 1;
    34              1                        844                 PRDATA  = PRDATA1;
    35              1                        844                 PREADY  = PREADY1;
    36              1                        844                 PSLVERR = PSLVERR1;
    37                                                       end
    38                                                       default : begin
    39              1                          3                 PSEL0   = 0;
    40              1                          3                 PSEL1   = 0;
    41              1                          3                 PRDATA  = 0;
    42              1                          3                 PREADY  = 0;
    43              1                          3                 PSLVERR = 0;

Toggle Coverage:
    Enabled Coverage              Bins      Hits    Misses  Coverage
    ----------------              ----      ----    ------  --------
    Toggles                        210       204         6    97.14%

================================Toggle Details================================

Toggle Coverage for instance /\top#DUT /apb4_decoder --

                                              Node      1H->0L      0L->1H  "Coverage"
                                              ---------------------------------------
                                      PRDATA[31-0]           1           1      100.00 
                                     PRDATA0[0-31]           1           1      100.00 
                                     PRDATA1[0-31]           1           1      100.00 
                                            PREADY           1           1      100.00 
                                           PREADY0           1           1      100.00 
                                           PREADY1           1           1      100.00 
                                             PSEL0           1           1      100.00 
                                             PSEL1           1           1      100.00 
                                             PSELx           1           1      100.00 
                                           PSLVERR           0           0        0.00 
                                          PSLVERR0           0           0        0.00 
                                          PSLVERR1           0           0        0.00 

Total Node Count     =        105 
Toggled Node Count   =        102 
Untoggled Node Count =          3 

Toggle Coverage      =      97.14% (204 of 210 bins)

=================================================================================
=== Instance: /\top#DUT /apb4_regfile_slv0
=== Design Unit: work.APB4_REGFILE_SLV0
=================================================================================
Branch Coverage:
    Enabled Coverage              Bins      Hits    Misses  Coverage
    ----------------              ----      ----    ------  --------
    Branches                        46        44         2    95.65%

================================Branch Details================================

Branch Coverage for instance /\top#DUT /apb4_regfile_slv0

    Line         Item                      Count     Source 
    ----         ----                      -----     ------ 
  File ../RTL/APB4_REGFILE_SLV0.v
------------------------------------IF Branch------------------------------------
    43                                      1893     Count coming in to IF
    43              1                        577     assign reg_addr = (PSEL0 && PENABLE)? {8'h00, PADDR[23:0]} : 0;
    43              2                       1316     assign reg_addr = (PSEL0 && PENABLE)? {8'h00, PADDR[23:0]} : 0;
Branch totals: 2 hits of 2 branches = 100.00%

------------------------------------IF Branch------------------------------------
    53                                      1266     Count coming in to IF
    53              1                        577         if (PSEL0 && PENABLE) begin
    59              1                        689         else begin
Branch totals: 2 hits of 2 branches = 100.00%

------------------------------------IF Branch------------------------------------
    54                                       577     Count coming in to IF
    54              1                        133             if ((reg_addr % 4) != 0)
    56              1                        444             else
Branch totals: 2 hits of 2 branches = 100.00%

------------------------------------IF Branch------------------------------------
    65                                       962     Count coming in to IF
    65              1                         36         if (!PRESETn) begin
    69              1                        926         else begin
Branch totals: 2 hits of 2 branches = 100.00%

------------------------------------IF Branch------------------------------------
    70                                       926     Count coming in to IF
    70              1                        309             if (PSEL0 && PENABLE && ~PSLVERR) begin
    115             1                        617             else begin
Branch totals: 2 hits of 2 branches = 100.00%

------------------------------------IF Branch------------------------------------
    72                                       309     Count coming in to IF
    72              1                        172                 if (PWRITE) begin
    93              1                        137                 else begin
Branch totals: 2 hits of 2 branches = 100.00%

------------------------------------CASE Branch------------------------------------
    73                                       172     Count coming in to CASE
    74              1                         10                         32'h0000_0000: SYS_STATUS_REG	<= (SYS_STATUS_REG   &	~mask) | (PWDATA & mask);
    75              1                         10                         32'h0000_0004: INT_CTRL_REG		<= (INT_CTRL_REG     &	~mask) | (PWDATA & mask);
    76              1                         16                         32'h0000_0008: DEV_ID_REG		<= (DEV_ID_REG       &	~mask) | (PWDATA & mask);
    77              1                         12                         32'h0000_000c: MEM_CTRL_REG		<= (MEM_CTRL_REG     &	~mask) | (PWDATA & mask);
    78              1                         15                         32'h0000_0010: TEMP_SENSOR_REG	<= (TEMP_SENSOR_REG  &	~mask) | (PWDATA & mask);
    79              1                          4                         32'h0000_0014: ADC_CTRL_REG		<= (ADC_CTRL_REG     &	~mask) | (PWDATA & mask);
    80              1                         10                         32'h0000_0018: DBG_CTRL_REG		<= (DBG_CTRL_REG     &	~mask) | (PWDATA & mask);
    81              1                         11                         32'h0000_001c: GPIO_DATA_REG	<= (GPIO_DATA_REG    &	~mask) | (PWDATA & mask);
    82              1                         10                         32'h0000_0020: DAC_OUTPUT_REG	<= (DAC_OUTPUT_REG   &	~mask) | (PWDATA & mask);
    83              1                          9                         32'h0000_0024: VOLTAGE_CTRL_REG	<= (VOLTAGE_CTRL_REG &	~mask) | (PWDATA & mask);
    84              1                         16                         32'h0000_0028: CLK_CONFIG_REG	<= (CLK_CONFIG_REG   &	~mask) | (PWDATA & mask);
    85              1                         10                         32'h0000_002c: TIMER_COUNT_REG	<= (TIMER_COUNT_REG  &	~mask) | (PWDATA & mask);
    86              1                          5                         32'h0000_0030: INPUT_DATA_REG	<= (INPUT_DATA_REG   &	~mask) | (PWDATA & mask);
    87              1                         11                         32'h0000_0034: OUTPUT_DATA_REG	<= (OUTPUT_DATA_REG  &	~mask) | (PWDATA & mask);
    88              1                         11                         32'h0000_0038: DMA_CTRL_REG		<= (DMA_CTRL_REG     &	~mask) | (PWDATA & mask);
    89              1                         12                         32'h0000_003c: SYS_CTRL_REG		<= (SYS_CTRL_REG     &	~mask) | (PWDATA & mask);
    90              1                    ***0***                         default : ;
Branch totals: 16 hits of 17 branches = 94.11%

------------------------------------CASE Branch------------------------------------
    94                                       137     Count coming in to CASE
    95              1                          8                         32'h0000_0000: PRDATA <= SYS_STATUS_REG;
    96              1                          5                         32'h0000_0004: PRDATA <= INT_CTRL_REG;
    97              1                         12                         32'h0000_0008: PRDATA <= DEV_ID_REG;
    98              1                         13                         32'h0000_000c: PRDATA <= MEM_CTRL_REG;
    99              1                          5                         32'h0000_0010: PRDATA <= TEMP_SENSOR_REG;
    100             1                         10                         32'h0000_0014: PRDATA <= ADC_CTRL_REG;
    101             1                         13                         32'h0000_0018: PRDATA <= DBG_CTRL_REG;
    102             1                         10                         32'h0000_001c: PRDATA <= GPIO_DATA_REG;
    103             1                          7                         32'h0000_0020: PRDATA <= DAC_OUTPUT_REG;
    104             1                          6                         32'h0000_0024: PRDATA <= VOLTAGE_CTRL_REG;
    105             1                         12                         32'h0000_0028: PRDATA <= CLK_CONFIG_REG;
    106             1                          8                         32'h0000_002c: PRDATA <= TIMER_COUNT_REG;
    107             1                          6                         32'h0000_0030: PRDATA <= INPUT_DATA_REG;
    108             1                          7                         32'h0000_0034: PRDATA <= OUTPUT_DATA_REG;
    109             1                          7                         32'h0000_0038: PRDATA <= DMA_CTRL_REG;
    110             1                          8                         32'h0000_003c: PRDATA <= SYS_CTRL_REG;
    111             1                    ***0***                         default : ;
Branch totals: 16 hits of 17 branches = 94.11%


Condition Coverage:
    Enabled Coverage              Bins   Covered    Misses  Coverage
    ----------------              ----      ----    ------  --------
    Conditions                       8         7         1    87.50%

================================Condition Details================================

Condition Coverage for instance /\top#DUT /apb4_regfile_slv0 --

  File ../RTL/APB4_REGFILE_SLV0.v
----------------Focused Condition View-------------------
Line       43 Item    1  (PSEL0 && PENABLE)
Condition totals: 2 of 2 input terms covered = 100.00%

  Input Term   Covered  Reason for no coverage   Hint
 -----------  --------  -----------------------  --------------
       PSEL0         Y
     PENABLE         Y

     Rows:       Hits  FEC Target            Non-masking condition(s)      
 ---------  ---------  --------------------  -------------------------     
  Row   1:          1  PSEL0_0               -                             
  Row   2:          1  PSEL0_1               PENABLE                       
  Row   3:          1  PENABLE_0             PSEL0                         
  Row   4:          1  PENABLE_1             PSEL0                         

----------------Focused Condition View-------------------
Line       53 Item    1  (PSEL0 && PENABLE)
Condition totals: 2 of 2 input terms covered = 100.00%

  Input Term   Covered  Reason for no coverage   Hint
 -----------  --------  -----------------------  --------------
       PSEL0         Y
     PENABLE         Y

     Rows:       Hits  FEC Target            Non-masking condition(s)      
 ---------  ---------  --------------------  -------------------------     
  Row   1:          1  PSEL0_0               -                             
  Row   2:          1  PSEL0_1               PENABLE                       
  Row   3:          1  PENABLE_0             PSEL0                         
  Row   4:          1  PENABLE_1             PSEL0                         

----------------Focused Condition View-------------------
Line       54 Item    1  ((reg_addr % 4) != 0)
Condition totals: 1 of 1 input term covered = 100.00%

             Input Term   Covered  Reason for no coverage   Hint
            -----------  --------  -----------------------  --------------
  ((reg_addr % 4) != 0)         Y

     Rows:       Hits  FEC Target               Non-masking condition(s)      
 ---------  ---------  --------------------     -------------------------     
  Row   1:          1  ((reg_addr % 4) != 0)_0  -                             
  Row   2:          1  ((reg_addr % 4) != 0)_1  -                             

----------------Focused Condition View-------------------
Line       70 Item    1  ((PSEL0 && PENABLE) && ~PSLVERR)
Condition totals: 2 of 3 input terms covered = 66.66%

  Input Term   Covered  Reason for no coverage   Hint
 -----------  --------  -----------------------  --------------
       PSEL0         Y
     PENABLE         Y
     PSLVERR         N  '_1' not hit             Hit '_1'

     Rows:       Hits  FEC Target            Non-masking condition(s)      
 ---------  ---------  --------------------  -------------------------     
  Row   1:          1  PSEL0_0               -                             
  Row   2:          1  PSEL0_1               (~PSLVERR && PENABLE)         
  Row   3:          1  PENABLE_0             PSEL0                         
  Row   4:          1  PENABLE_1             (~PSLVERR && PSEL0)           
  Row   5:          1  PSLVERR_0             (PSEL0 && PENABLE)            
  Row   6:    ***0***  PSLVERR_1             (PSEL0 && PENABLE)            


Statement Coverage:
    Enabled Coverage              Bins      Hits    Misses  Coverage
    ----------------              ----      ----    ------  --------
    Statements                      47        47         0   100.00%

================================Statement Details================================

Statement Coverage for instance /\top#DUT /apb4_regfile_slv0 --

    Line         Item                      Count     Source 
    ----         ----                      -----     ------ 
  File ../RTL/APB4_REGFILE_SLV0.v
    5                                                module APB4_REGFILE_SLV0 #(
    6                                                    parameter  DATA_WIDTH = 32,
    7                                                    parameter  ADDR_WIDTH = 32,
    8                                                    localparam STRB_WIDTH = DATA_WIDTH/8
    9                                                ) (
    10                                                   input       wire                                PCLK,
    11                                                   input       wire                                PRESETn,
    12                                                   input       wire        [ADDR_WIDTH-1:0]        PADDR,
    13                                                   input       wire                                PSEL0,
    14                                                   input       wire                                PENABLE,
    15                                                   input       wire                                PWRITE,
    16                                                   input       wire        [DATA_WIDTH-1:0]        PWDATA,
    17                                                   input       wire        [STRB_WIDTH-1:0]        PSTRB,
    18                                                   output      reg                                 PREADY,
    19                                                   output      reg         [DATA_WIDTH-1:0]        PRDATA,
    20                                                   output      reg                                 PSLVERR
    21                                               );
    22                                               
    23                                               reg [DATA_WIDTH-1:0] SYS_STATUS_REG;
    24                                               reg [DATA_WIDTH-1:0] INT_CTRL_REG;
    25                                               reg [DATA_WIDTH-1:0] DEV_ID_REG;
    26                                               reg [DATA_WIDTH-1:0] MEM_CTRL_REG;
    27                                               reg [DATA_WIDTH-1:0] TEMP_SENSOR_REG;
    28                                               reg [DATA_WIDTH-1:0] ADC_CTRL_REG;
    29                                               reg [DATA_WIDTH-1:0] DBG_CTRL_REG;
    30                                               reg [DATA_WIDTH-1:0] GPIO_DATA_REG;
    31                                               reg [DATA_WIDTH-1:0] DAC_OUTPUT_REG;
    32                                               reg [DATA_WIDTH-1:0] VOLTAGE_CTRL_REG;
    33                                               reg [DATA_WIDTH-1:0] CLK_CONFIG_REG;
    34                                               reg [DATA_WIDTH-1:0] TIMER_COUNT_REG;
    35                                               reg [DATA_WIDTH-1:0] INPUT_DATA_REG;
    36                                               reg [DATA_WIDTH-1:0] OUTPUT_DATA_REG;
    37                                               reg [DATA_WIDTH-1:0] DMA_CTRL_REG;
    38                                               reg [DATA_WIDTH-1:0] SYS_CTRL_REG;
    39                                               
    40                                               wire [DATA_WIDTH-1:0] mask;
    41                                               wire [ADDR_WIDTH-1:0] reg_addr;
    42                                               
    43              1                       1894     assign reg_addr = (PSEL0 && PENABLE)? {8'h00, PADDR[23:0]} : 0;
    44                                               
    45                                               genvar  i;
    46                                               generate
    47                                                   for (i = 0 ; i < STRB_WIDTH ; i = i + 1) begin
    48       1 (GI=0)                        276             assign mask[i*8 +: 8] = {8{PSTRB[i]}};
    48       1 (GI=1)                        274     
    48       1 (GI=2)                        264     
    48       1 (GI=3)                        254     
    49                                                   end
    50                                               endgenerate
    51                                               
    52              1                       1266     always @(*) begin
    53                                                   if (PSEL0 && PENABLE) begin
    54                                                       if ((reg_addr % 4) != 0)
    55              1                        133                 PSLVERR = 1;
    56                                                       else
    57              1                        444                 PSLVERR = 0;
    58                                                   end
    59                                                   else begin
    60              1                        689             PSLVERR = 0;
    61                                                   end
    62                                               end
    63                                               
    64              1                        962     always @(posedge PCLK or negedge PRESETn) begin
    65                                                   if (!PRESETn) begin
    66              1                         36             PREADY <= 0;
    67              1                         36             PRDATA <= 0;
    68                                                   end
    69                                                   else begin
    70                                                       if (PSEL0 && PENABLE && ~PSLVERR) begin
    71              1                        309                 PREADY <= 1;
    72                                                           if (PWRITE) begin
    73                                                               case (reg_addr)
    74              1                         10                         32'h0000_0000: SYS_STATUS_REG	<= (SYS_STATUS_REG   &	~mask) | (PWDATA & mask);
    75              1                         10                         32'h0000_0004: INT_CTRL_REG		<= (INT_CTRL_REG     &	~mask) | (PWDATA & mask);
    76              1                         16                         32'h0000_0008: DEV_ID_REG		<= (DEV_ID_REG       &	~mask) | (PWDATA & mask);
    77              1                         12                         32'h0000_000c: MEM_CTRL_REG		<= (MEM_CTRL_REG     &	~mask) | (PWDATA & mask);
    78              1                         15                         32'h0000_0010: TEMP_SENSOR_REG	<= (TEMP_SENSOR_REG  &	~mask) | (PWDATA & mask);
    79              1                          4                         32'h0000_0014: ADC_CTRL_REG		<= (ADC_CTRL_REG     &	~mask) | (PWDATA & mask);
    80              1                         10                         32'h0000_0018: DBG_CTRL_REG		<= (DBG_CTRL_REG     &	~mask) | (PWDATA & mask);
    81              1                         11                         32'h0000_001c: GPIO_DATA_REG	<= (GPIO_DATA_REG    &	~mask) | (PWDATA & mask);
    82              1                         10                         32'h0000_0020: DAC_OUTPUT_REG	<= (DAC_OUTPUT_REG   &	~mask) | (PWDATA & mask);
    83              1                          9                         32'h0000_0024: VOLTAGE_CTRL_REG	<= (VOLTAGE_CTRL_REG &	~mask) | (PWDATA & mask);
    84              1                         16                         32'h0000_0028: CLK_CONFIG_REG	<= (CLK_CONFIG_REG   &	~mask) | (PWDATA & mask);
    85              1                         10                         32'h0000_002c: TIMER_COUNT_REG	<= (TIMER_COUNT_REG  &	~mask) | (PWDATA & mask);
    86              1                          5                         32'h0000_0030: INPUT_DATA_REG	<= (INPUT_DATA_REG   &	~mask) | (PWDATA & mask);
    87              1                         11                         32'h0000_0034: OUTPUT_DATA_REG	<= (OUTPUT_DATA_REG  &	~mask) | (PWDATA & mask);
    88              1                         11                         32'h0000_0038: DMA_CTRL_REG		<= (DMA_CTRL_REG     &	~mask) | (PWDATA & mask);
    89              1                         12                         32'h0000_003c: SYS_CTRL_REG		<= (SYS_CTRL_REG     &	~mask) | (PWDATA & mask);
    90                                                                   default : ;
    91                                                               endcase
    92                                                           end
    93                                                           else begin
    94                                                               case (reg_addr)
    95              1                          8                         32'h0000_0000: PRDATA <= SYS_STATUS_REG;
    96              1                          5                         32'h0000_0004: PRDATA <= INT_CTRL_REG;
    97              1                         12                         32'h0000_0008: PRDATA <= DEV_ID_REG;
    98              1                         13                         32'h0000_000c: PRDATA <= MEM_CTRL_REG;
    99              1                          5                         32'h0000_0010: PRDATA <= TEMP_SENSOR_REG;
    100             1                         10                         32'h0000_0014: PRDATA <= ADC_CTRL_REG;
    101             1                         13                         32'h0000_0018: PRDATA <= DBG_CTRL_REG;
    102             1                         10                         32'h0000_001c: PRDATA <= GPIO_DATA_REG;
    103             1                          7                         32'h0000_0020: PRDATA <= DAC_OUTPUT_REG;
    104             1                          6                         32'h0000_0024: PRDATA <= VOLTAGE_CTRL_REG;
    105             1                         12                         32'h0000_0028: PRDATA <= CLK_CONFIG_REG;
    106             1                          8                         32'h0000_002c: PRDATA <= TIMER_COUNT_REG;
    107             1                          6                         32'h0000_0030: PRDATA <= INPUT_DATA_REG;
    108             1                          7                         32'h0000_0034: PRDATA <= OUTPUT_DATA_REG;
    109             1                          7                         32'h0000_0038: PRDATA <= DMA_CTRL_REG;
    110             1                          8                         32'h0000_003c: PRDATA <= SYS_CTRL_REG;
    111                                                                  default : ;
    112                                                              endcase
    113                                                          end
    114                                                      end
    115                                                      else begin
    116             1                        617                 PREADY <= 0;
    117             1                        617                 PRDATA <= 0;

Toggle Coverage:
    Enabled Coverage              Bins      Hits    Misses  Coverage
    ----------------              ----      ----    ------  --------
    Toggles                       1366       786       580    57.54%

================================Toggle Details================================

Toggle Coverage for instance /\top#DUT /apb4_regfile_slv0 --

                                              Node      1H->0L      0L->1H  "Coverage"
                                              ---------------------------------------
                                   ADC_CTRL_REG[0]           0           0        0.00 
                                   ADC_CTRL_REG[1]           1           0       50.00 
                                 ADC_CTRL_REG[2-3]           0           1       50.00 
                                   ADC_CTRL_REG[4]           1           0       50.00 
                                   ADC_CTRL_REG[5]           1           1      100.00 
                                 ADC_CTRL_REG[6-7]           1           0       50.00 
                                ADC_CTRL_REG[8-31]           0           0        0.00 
                                 CLK_CONFIG_REG[0]           0           1       50.00 
                               CLK_CONFIG_REG[1-5]           1           1      100.00 
                                 CLK_CONFIG_REG[6]           0           1       50.00 
                                 CLK_CONFIG_REG[7]           1           1      100.00 
                               CLK_CONFIG_REG[8-9]           1           0       50.00 
                                CLK_CONFIG_REG[10]           0           0        0.00 
                                CLK_CONFIG_REG[11]           1           0       50.00 
                                CLK_CONFIG_REG[12]           0           0        0.00 
                                CLK_CONFIG_REG[13]           1           1      100.00 
                             CLK_CONFIG_REG[14-23]           0           0        0.00 
                             CLK_CONFIG_REG[24-27]           1           1      100.00 
                                CLK_CONFIG_REG[28]           1           0       50.00 
                             CLK_CONFIG_REG[29-31]           1           1      100.00 
                                 DAC_OUTPUT_REG[0]           0           0        0.00 
                               DAC_OUTPUT_REG[1-4]           0           1       50.00 
                               DAC_OUTPUT_REG[5-6]           0           0        0.00 
                                 DAC_OUTPUT_REG[7]           0           1       50.00 
                                 DAC_OUTPUT_REG[8]           0           0        0.00 
                              DAC_OUTPUT_REG[9-10]           0           1       50.00 
                                DAC_OUTPUT_REG[11]           1           0       50.00 
                                DAC_OUTPUT_REG[12]           1           1      100.00 
                                DAC_OUTPUT_REG[13]           0           1       50.00 
                                DAC_OUTPUT_REG[14]           1           0       50.00 
                                DAC_OUTPUT_REG[15]           1           1      100.00 
                             DAC_OUTPUT_REG[16-21]           0           1       50.00 
                                DAC_OUTPUT_REG[22]           1           1      100.00 
                                DAC_OUTPUT_REG[23]           0           1       50.00 
                             DAC_OUTPUT_REG[24-31]           0           0        0.00 
                                   DBG_CTRL_REG[0]           0           1       50.00 
                                 DBG_CTRL_REG[1-4]           1           1      100.00 
                                   DBG_CTRL_REG[5]           0           1       50.00 
                                   DBG_CTRL_REG[6]           1           1      100.00 
                                   DBG_CTRL_REG[7]           0           1       50.00 
                                 DBG_CTRL_REG[8-9]           0           0        0.00 
                                  DBG_CTRL_REG[10]           0           1       50.00 
                                  DBG_CTRL_REG[11]           1           0       50.00 
                               DBG_CTRL_REG[12-15]           0           0        0.00 
                                  DBG_CTRL_REG[16]           0           1       50.00 
                                  DBG_CTRL_REG[17]           0           0        0.00 
                               DBG_CTRL_REG[18-23]           1           1      100.00 
                               DBG_CTRL_REG[24-31]           0           0        0.00 
                                     DEV_ID_REG[0]           0           0        0.00 
                                     DEV_ID_REG[1]           1           0       50.00 
                                     DEV_ID_REG[2]           0           0        0.00 
                                     DEV_ID_REG[3]           0           1       50.00 
                                     DEV_ID_REG[4]           1           0       50.00 
                                     DEV_ID_REG[5]           0           1       50.00 
                                     DEV_ID_REG[6]           0           0        0.00 
                                     DEV_ID_REG[7]           1           0       50.00 
                                     DEV_ID_REG[8]           0           1       50.00 
                                     DEV_ID_REG[9]           1           1      100.00 
                                    DEV_ID_REG[10]           1           0       50.00 
                                 DEV_ID_REG[11-14]           1           1      100.00 
                                    DEV_ID_REG[15]           1           0       50.00 
                                    DEV_ID_REG[16]           1           1      100.00 
                                    DEV_ID_REG[17]           0           0        0.00 
                                 DEV_ID_REG[18-22]           1           1      100.00 
                                    DEV_ID_REG[23]           0           1       50.00 
                                    DEV_ID_REG[24]           1           1      100.00 
                                    DEV_ID_REG[25]           1           0       50.00 
                                    DEV_ID_REG[26]           0           0        0.00 
                                 DEV_ID_REG[27-29]           1           1      100.00 
                                    DEV_ID_REG[30]           1           0       50.00 
                                    DEV_ID_REG[31]           1           1      100.00 
                                 DMA_CTRL_REG[0-4]           1           1      100.00 
                                   DMA_CTRL_REG[5]           0           1       50.00 
                                 DMA_CTRL_REG[6-9]           1           1      100.00 
                               DMA_CTRL_REG[10-11]           0           1       50.00 
                               DMA_CTRL_REG[12-13]           1           1      100.00 
                                  DMA_CTRL_REG[14]           0           1       50.00 
                               DMA_CTRL_REG[15-19]           1           1      100.00 
                                  DMA_CTRL_REG[20]           0           0        0.00 
                                  DMA_CTRL_REG[21]           0           1       50.00 
                                  DMA_CTRL_REG[22]           1           1      100.00 
                                  DMA_CTRL_REG[23]           0           1       50.00 
                                  DMA_CTRL_REG[24]           0           0        0.00 
                               DMA_CTRL_REG[25-27]           1           1      100.00 
                               DMA_CTRL_REG[28-29]           1           0       50.00 
                               DMA_CTRL_REG[30-31]           1           1      100.00 
                                  GPIO_DATA_REG[0]           1           1      100.00 
                                GPIO_DATA_REG[1-3]           1           0       50.00 
                                  GPIO_DATA_REG[4]           1           1      100.00 
                                GPIO_DATA_REG[5-8]           1           0       50.00 
                               GPIO_DATA_REG[9-10]           0           1       50.00 
                              GPIO_DATA_REG[11-13]           1           1      100.00 
                                 GPIO_DATA_REG[14]           1           0       50.00 
                                 GPIO_DATA_REG[15]           1           1      100.00 
                                 GPIO_DATA_REG[16]           0           0        0.00 
                                 GPIO_DATA_REG[17]           1           0       50.00 
                                 GPIO_DATA_REG[18]           0           1       50.00 
                                 GPIO_DATA_REG[19]           1           0       50.00 
                                 GPIO_DATA_REG[20]           0           1       50.00 
                                 GPIO_DATA_REG[21]           0           0        0.00 
                                 GPIO_DATA_REG[22]           0           1       50.00 
                              GPIO_DATA_REG[23-31]           0           0        0.00 
                                 INPUT_DATA_REG[0]           0           1       50.00 
                               INPUT_DATA_REG[1-3]           0           0        0.00 
                                 INPUT_DATA_REG[4]           0           1       50.00 
                                 INPUT_DATA_REG[5]           1           0       50.00 
                                 INPUT_DATA_REG[6]           0           0        0.00 
                                 INPUT_DATA_REG[7]           0           1       50.00 
                              INPUT_DATA_REG[8-13]           0           0        0.00 
                                INPUT_DATA_REG[14]           0           1       50.00 
                             INPUT_DATA_REG[15-26]           0           0        0.00 
                             INPUT_DATA_REG[27-28]           1           0       50.00 
                                INPUT_DATA_REG[29]           0           1       50.00 
                                INPUT_DATA_REG[30]           0           0        0.00 
                                INPUT_DATA_REG[31]           1           0       50.00 
                                 INT_CTRL_REG[0-7]           1           1      100.00 
                                   INT_CTRL_REG[8]           1           0       50.00 
                                   INT_CTRL_REG[9]           1           1      100.00 
                                  INT_CTRL_REG[10]           1           0       50.00 
                                  INT_CTRL_REG[11]           1           1      100.00 
                                  INT_CTRL_REG[12]           0           1       50.00 
                               INT_CTRL_REG[13-22]           1           1      100.00 
                                  INT_CTRL_REG[23]           1           0       50.00 
                                  INT_CTRL_REG[24]           1           1      100.00 
                                  INT_CTRL_REG[25]           1           0       50.00 
                               INT_CTRL_REG[26-28]           1           1      100.00 
                               INT_CTRL_REG[29-30]           1           0       50.00 
                                  INT_CTRL_REG[31]           0           0        0.00 
                                 MEM_CTRL_REG[0-4]           1           1      100.00 
                                   MEM_CTRL_REG[5]           0           1       50.00 
                                 MEM_CTRL_REG[6-7]           1           1      100.00 
                                   MEM_CTRL_REG[8]           1           0       50.00 
                                   MEM_CTRL_REG[9]           0           0        0.00 
                                  MEM_CTRL_REG[10]           0           1       50.00 
                                  MEM_CTRL_REG[11]           0           0        0.00 
                               MEM_CTRL_REG[12-13]           0           1       50.00 
                                  MEM_CTRL_REG[14]           0           0        0.00 
                                  MEM_CTRL_REG[15]           1           0       50.00 
                                  MEM_CTRL_REG[16]           1           1      100.00 
                                  MEM_CTRL_REG[17]           0           1       50.00 
                                  MEM_CTRL_REG[18]           1           1      100.00 
                               MEM_CTRL_REG[19-21]           0           1       50.00 
                                  MEM_CTRL_REG[22]           0           0        0.00 
                                  MEM_CTRL_REG[23]           1           1      100.00 
                                  MEM_CTRL_REG[24]           0           1       50.00 
                                  MEM_CTRL_REG[25]           1           0       50.00 
                                  MEM_CTRL_REG[26]           1           1      100.00 
                                  MEM_CTRL_REG[27]           1           0       50.00 
                                  MEM_CTRL_REG[28]           0           1       50.00 
                                  MEM_CTRL_REG[29]           1           1      100.00 
                                  MEM_CTRL_REG[30]           0           1       50.00 
                                  MEM_CTRL_REG[31]           0           0        0.00 
                                OUTPUT_DATA_REG[0]           1           1      100.00 
                              OUTPUT_DATA_REG[1-2]           0           0        0.00 
                                OUTPUT_DATA_REG[3]           1           1      100.00 
                                OUTPUT_DATA_REG[4]           0           0        0.00 
                              OUTPUT_DATA_REG[5-6]           1           1      100.00 
                                OUTPUT_DATA_REG[7]           0           0        0.00 
                                OUTPUT_DATA_REG[8]           1           1      100.00 
                                OUTPUT_DATA_REG[9]           0           0        0.00 
                            OUTPUT_DATA_REG[10-11]           1           1      100.00 
                               OUTPUT_DATA_REG[12]           0           0        0.00 
                               OUTPUT_DATA_REG[13]           1           1      100.00 
                            OUTPUT_DATA_REG[14-15]           0           0        0.00 
                               OUTPUT_DATA_REG[16]           1           1      100.00 
                               OUTPUT_DATA_REG[17]           0           1       50.00 
                            OUTPUT_DATA_REG[18-20]           1           1      100.00 
                            OUTPUT_DATA_REG[21-22]           0           1       50.00 
                               OUTPUT_DATA_REG[23]           1           1      100.00 
                               OUTPUT_DATA_REG[24]           1           0       50.00 
                               OUTPUT_DATA_REG[25]           0           1       50.00 
                               OUTPUT_DATA_REG[26]           0           0        0.00 
                            OUTPUT_DATA_REG[27-28]           0           1       50.00 
                               OUTPUT_DATA_REG[29]           1           0       50.00 
                               OUTPUT_DATA_REG[30]           0           0        0.00 
                               OUTPUT_DATA_REG[31]           1           1      100.00 
                                       PADDR[0-31]           1           1      100.00 
                                              PCLK           1           1      100.00 
                                           PENABLE           1           1      100.00 
                                      PRDATA[0-31]           1           1      100.00 
                                            PREADY           1           1      100.00 
                                           PRESETn           1           1      100.00 
                                             PSEL0           1           1      100.00 
                                           PSLVERR           0           0        0.00 
                                        PSTRB[0-3]           1           1      100.00 
                                      PWDATA[0-31]           1           1      100.00 
                                            PWRITE           1           1      100.00 
                                   SYS_CTRL_REG[0]           1           1      100.00 
                                 SYS_CTRL_REG[1-2]           0           0        0.00 
                                 SYS_CTRL_REG[3-4]           1           1      100.00 
                                 SYS_CTRL_REG[5-6]           0           0        0.00 
                                   SYS_CTRL_REG[7]           1           1      100.00 
                                 SYS_CTRL_REG[8-9]           0           1       50.00 
                                  SYS_CTRL_REG[10]           0           0        0.00 
                               SYS_CTRL_REG[11-13]           1           1      100.00 
                                  SYS_CTRL_REG[14]           0           0        0.00 
                                  SYS_CTRL_REG[15]           1           1      100.00 
                               SYS_CTRL_REG[16-17]           0           1       50.00 
                               SYS_CTRL_REG[18-19]           1           1      100.00 
                                  SYS_CTRL_REG[20]           0           0        0.00 
                                  SYS_CTRL_REG[21]           0           1       50.00 
                                  SYS_CTRL_REG[22]           0           0        0.00 
                               SYS_CTRL_REG[23-24]           0           1       50.00 
                               SYS_CTRL_REG[25-26]           0           0        0.00 
                                  SYS_CTRL_REG[27]           1           1      100.00 
                                  SYS_CTRL_REG[28]           0           1       50.00 
                               SYS_CTRL_REG[29-31]           1           1      100.00 
                                 SYS_STATUS_REG[0]           0           0        0.00 
                                 SYS_STATUS_REG[1]           0           1       50.00 
                                 SYS_STATUS_REG[2]           1           1      100.00 
                                 SYS_STATUS_REG[3]           1           0       50.00 
                                 SYS_STATUS_REG[4]           0           0        0.00 
                               SYS_STATUS_REG[5-6]           1           1      100.00 
                                 SYS_STATUS_REG[7]           1           0       50.00 
                                 SYS_STATUS_REG[8]           1           1      100.00 
                              SYS_STATUS_REG[9-10]           0           1       50.00 
                                SYS_STATUS_REG[11]           1           1      100.00 
                                SYS_STATUS_REG[12]           0           1       50.00 
                             SYS_STATUS_REG[13-15]           1           1      100.00 
                             SYS_STATUS_REG[16-17]           0           0        0.00 
                                SYS_STATUS_REG[18]           0           1       50.00 
                                SYS_STATUS_REG[19]           1           0       50.00 
                             SYS_STATUS_REG[20-22]           0           0        0.00 
                                SYS_STATUS_REG[23]           1           0       50.00 
                                SYS_STATUS_REG[24]           1           1      100.00 
                             SYS_STATUS_REG[25-28]           1           0       50.00 
                             SYS_STATUS_REG[29-30]           0           0        0.00 
                                SYS_STATUS_REG[31]           1           0       50.00 
                                TEMP_SENSOR_REG[0]           1           1      100.00 
                                TEMP_SENSOR_REG[1]           1           0       50.00 
                                TEMP_SENSOR_REG[2]           0           0        0.00 
                                TEMP_SENSOR_REG[3]           1           0       50.00 
                                TEMP_SENSOR_REG[4]           0           1       50.00 
                                TEMP_SENSOR_REG[5]           1           0       50.00 
                                TEMP_SENSOR_REG[6]           0           1       50.00 
                                TEMP_SENSOR_REG[7]           0           0        0.00 
                                TEMP_SENSOR_REG[8]           1           1      100.00 
                                TEMP_SENSOR_REG[9]           0           1       50.00 
                               TEMP_SENSOR_REG[10]           1           0       50.00 
                            TEMP_SENSOR_REG[11-12]           1           1      100.00 
                               TEMP_SENSOR_REG[13]           1           0       50.00 
                               TEMP_SENSOR_REG[14]           0           1       50.00 
                               TEMP_SENSOR_REG[15]           1           0       50.00 
                               TEMP_SENSOR_REG[16]           1           1      100.00 
                               TEMP_SENSOR_REG[17]           1           0       50.00 
                               TEMP_SENSOR_REG[18]           1           1      100.00 
                               TEMP_SENSOR_REG[19]           0           1       50.00 
                               TEMP_SENSOR_REG[20]           1           1      100.00 
                               TEMP_SENSOR_REG[21]           1           0       50.00 
                               TEMP_SENSOR_REG[22]           1           1      100.00 
                            TEMP_SENSOR_REG[23-24]           0           1       50.00 
                               TEMP_SENSOR_REG[25]           1           1      100.00 
                               TEMP_SENSOR_REG[26]           0           1       50.00 
                            TEMP_SENSOR_REG[27-28]           1           1      100.00 
                               TEMP_SENSOR_REG[29]           0           1       50.00 
                            TEMP_SENSOR_REG[30-31]           1           1      100.00 
                              TIMER_COUNT_REG[0-4]           1           0       50.00 
                              TIMER_COUNT_REG[5-7]           0           0        0.00 
                                TIMER_COUNT_REG[8]           1           1      100.00 
                                TIMER_COUNT_REG[9]           0           0        0.00 
                               TIMER_COUNT_REG[10]           1           1      100.00 
                               TIMER_COUNT_REG[11]           1           0       50.00 
                            TIMER_COUNT_REG[12-14]           1           1      100.00 
                            TIMER_COUNT_REG[15-24]           0           0        0.00 
                               TIMER_COUNT_REG[25]           1           0       50.00 
                               TIMER_COUNT_REG[26]           0           0        0.00 
                            TIMER_COUNT_REG[27-31]           1           0       50.00 
                             VOLTAGE_CTRL_REG[0-7]           0           0        0.00 
                               VOLTAGE_CTRL_REG[8]           0           1       50.00 
                               VOLTAGE_CTRL_REG[9]           0           0        0.00 
                           VOLTAGE_CTRL_REG[10-11]           1           0       50.00 
                              VOLTAGE_CTRL_REG[12]           1           1      100.00 
                              VOLTAGE_CTRL_REG[13]           0           0        0.00 
                           VOLTAGE_CTRL_REG[14-15]           1           0       50.00 
                              VOLTAGE_CTRL_REG[16]           0           0        0.00 
                              VOLTAGE_CTRL_REG[17]           0           1       50.00 
                              VOLTAGE_CTRL_REG[18]           0           0        0.00 
                           VOLTAGE_CTRL_REG[19-20]           0           1       50.00 
                              VOLTAGE_CTRL_REG[21]           1           1      100.00 
                              VOLTAGE_CTRL_REG[22]           0           1       50.00 
                              VOLTAGE_CTRL_REG[23]           1           1      100.00 
                           VOLTAGE_CTRL_REG[24-31]           0           0        0.00 
                                        mask[0-31]           1           1      100.00 
                                     reg_addr[0-1]           0           0        0.00 
                                     reg_addr[2-5]           1           1      100.00 
                                    reg_addr[6-31]           0           0        0.00 

Total Node Count     =        683 
Toggled Node Count   =        309 
Untoggled Node Count =        374 

Toggle Coverage      =      57.54% (786 of 1366 bins)

=================================================================================
=== Instance: /\top#DUT /apb4_mem_slv1
=== Design Unit: work.APB4_MEM_SLV1
=================================================================================
Branch Coverage:
    Enabled Coverage              Bins      Hits    Misses  Coverage
    ----------------              ----      ----    ------  --------
    Branches                        10         9         1    90.00%

================================Branch Details================================

Branch Coverage for instance /\top#DUT /apb4_mem_slv1

    Line         Item                      Count     Source 
    ----         ----                      -----     ------ 
  File ../RTL/APB4_MEM_SLV1.v
------------------------------------IF Branch------------------------------------
    38                                      1881     Count coming in to IF
    38              1                        583         if (PSEL1 && PENABLE) begin
    45              1                       1298         else begin
Branch totals: 2 hits of 2 branches = 100.00%

------------------------------------IF Branch------------------------------------
    40                                       583     Count coming in to IF
    40              1                    ***0***             if (word_addr > (MEM_DEPTH-1))
    42              1                        583             else
Branch totals: 1 hit of 2 branches = 50.00%

------------------------------------IF Branch------------------------------------
    52                                       960     Count coming in to IF
    52              1                         36         if (!PRESETn) begin
    56              1                        924         else begin
Branch totals: 2 hits of 2 branches = 100.00%

------------------------------------IF Branch------------------------------------
    57                                       924     Count coming in to IF
    57              1                        309             if (PSEL1 && PENABLE && ~PSLVERR) begin
    64              1                        615             else begin
Branch totals: 2 hits of 2 branches = 100.00%

------------------------------------IF Branch------------------------------------
    59                                       309     Count coming in to IF
    59              1                        175                 if (PWRITE)
    61              1                        134                 else
Branch totals: 2 hits of 2 branches = 100.00%


Condition Coverage:
    Enabled Coverage              Bins   Covered    Misses  Coverage
    ----------------              ----      ----    ------  --------
    Conditions                       6         4         2    66.66%

================================Condition Details================================

Condition Coverage for instance /\top#DUT /apb4_mem_slv1 --

  File ../RTL/APB4_MEM_SLV1.v
----------------Focused Condition View-------------------
Line       38 Item    1  (PSEL1 && PENABLE)
Condition totals: 2 of 2 input terms covered = 100.00%

  Input Term   Covered  Reason for no coverage   Hint
 -----------  --------  -----------------------  --------------
       PSEL1         Y
     PENABLE         Y

     Rows:       Hits  FEC Target            Non-masking condition(s)      
 ---------  ---------  --------------------  -------------------------     
  Row   1:          1  PSEL1_0               -                             
  Row   2:          1  PSEL1_1               PENABLE                       
  Row   3:          1  PENABLE_0             PSEL1                         
  Row   4:          1  PENABLE_1             PSEL1                         

----------------Focused Condition View-------------------
Line       40 Item    1  (word_addr > (64 - 1))
Condition totals: 0 of 1 input term covered = 0.00%

              Input Term   Covered  Reason for no coverage   Hint
             -----------  --------  -----------------------  --------------
  (word_addr > (64 - 1))         N  '_1' not hit             Hit '_1'

     Rows:       Hits  FEC Target                Non-masking condition(s)      
 ---------  ---------  --------------------      -------------------------     
  Row   1:          1  (word_addr > (64 - 1))_0  -                             
  Row   2:    ***0***  (word_addr > (64 - 1))_1  -                             

----------------Focused Condition View-------------------
Line       57 Item    1  ((PSEL1 && PENABLE) && ~PSLVERR)
Condition totals: 2 of 3 input terms covered = 66.66%

  Input Term   Covered  Reason for no coverage   Hint
 -----------  --------  -----------------------  --------------
       PSEL1         Y
     PENABLE         Y
     PSLVERR         N  '_1' not hit             Hit '_1'

     Rows:       Hits  FEC Target            Non-masking condition(s)      
 ---------  ---------  --------------------  -------------------------     
  Row   1:          1  PSEL1_0               -                             
  Row   2:          1  PSEL1_1               (~PSLVERR && PENABLE)         
  Row   3:          1  PENABLE_0             PSEL1                         
  Row   4:          1  PENABLE_1             (~PSLVERR && PSEL1)           
  Row   5:          1  PSLVERR_0             (PSEL1 && PENABLE)            
  Row   6:    ***0***  PSLVERR_1             (PSEL1 && PENABLE)            


Statement Coverage:
    Enabled Coverage              Bins      Hits    Misses  Coverage
    ----------------              ----      ----    ------  --------
    Statements                      18        17         1    94.44%

================================Statement Details================================

Statement Coverage for instance /\top#DUT /apb4_mem_slv1 --

    Line         Item                      Count     Source 
    ----         ----                      -----     ------ 
  File ../RTL/APB4_MEM_SLV1.v
    5                                                module APB4_MEM_SLV1 #(
    6                                                    parameter  DATA_WIDTH = 32,
    7                                                    parameter  ADDR_WIDTH = 32,
    8                                                    parameter  MEM_DEPTH  = 64,
    9                                                    localparam STRB_WIDTH = DATA_WIDTH/8,
    10                                                   localparam WORD_ADDR  = $clog2(MEM_DEPTH)
    11                                               ) (
    12                                                   input       wire                                PCLK,
    13                                                   input       wire                                PRESETn,
    14                                                   input       wire        [ADDR_WIDTH-1:0]        PADDR,
    15                                                   input       wire                                PSEL1,
    16                                                   input       wire                                PENABLE,
    17                                                   input       wire                                PWRITE,
    18                                                   input       wire        [DATA_WIDTH-1:0]        PWDATA,
    19                                                   input       wire        [STRB_WIDTH-1:0]        PSTRB,
    20                                                   output      reg                                 PREADY,
    21                                                   output      reg         [DATA_WIDTH-1:0]        PRDATA,
    22                                                   output      reg                                 PSLVERR
    23                                               );
    24                                               
    25                                               reg [DATA_WIDTH-1:0] MEM [MEM_DEPTH-1:0];
    26                                               
    27                                               reg [WORD_ADDR-1:0] word_addr;
    28                                               wire [DATA_WIDTH-1:0] mask;
    29                                               
    30                                               genvar i;
    31                                               generate
    32                                                   for (i = 0 ; i < STRB_WIDTH ; i = i + 1) begin
    33       1 (GI=0)                        276             assign mask[i*8 +: 8] = {8{PSTRB[i]}};
    33       1 (GI=1)                        274     
    33       1 (GI=2)                        264     
    33       1 (GI=3)                        254     
    34                                                   end
    35                                               endgenerate
    36                                               
    37              1                       1881     always @(*) begin
    38                                                   if (PSEL1 && PENABLE) begin
    39              1                        583             word_addr = PADDR[WORD_ADDR-1:0];
    40                                                       if (word_addr > (MEM_DEPTH-1))
    41              1                    ***0***                 PSLVERR = 1;
    42                                                       else
    43              1                        583                 PSLVERR = 0;
    44                                                   end
    45                                                   else begin
    46              1                       1298             word_addr = 0;
    47              1                       1298             PSLVERR = 0;
    48                                                   end
    49                                               end
    50                                               
    51              1                        960     always @(posedge PCLK or negedge PRESETn) begin
    52                                                   if (!PRESETn) begin
    53              1                         36             PREADY <= 0;
    54              1                         36             PRDATA <= 0;
    55                                                   end
    56                                                   else begin
    57                                                       if (PSEL1 && PENABLE && ~PSLVERR) begin
    58              1                        309                 PREADY <= 1;
    59                                                           if (PWRITE)
    60              1                        175                     MEM[word_addr] <= (MEM[word_addr] & ~mask) | (PWDATA & mask);
    61                                                           else
    62              1                        134                     PRDATA <= MEM[word_addr];
    63                                                       end
    64                                                       else begin
    65              1                        615                 PREADY <= 0;
    66              1                        615                 PRDATA <= 0;

Toggle Coverage:
    Enabled Coverage              Bins      Hits    Misses  Coverage
    ----------------              ----      ----    ------  --------
    Toggles                        290       288         2    99.31%

================================Toggle Details================================

Toggle Coverage for instance /\top#DUT /apb4_mem_slv1 --

                                              Node      1H->0L      0L->1H  "Coverage"
                                              ---------------------------------------
                                       PADDR[0-31]           1           1      100.00 
                                              PCLK           1           1      100.00 
                                           PENABLE           1           1      100.00 
                                      PRDATA[0-31]           1           1      100.00 
                                            PREADY           1           1      100.00 
                                           PRESETn           1           1      100.00 
                                             PSEL1           1           1      100.00 
                                           PSLVERR           0           0        0.00 
                                        PSTRB[0-3]           1           1      100.00 
                                      PWDATA[0-31]           1           1      100.00 
                                            PWRITE           1           1      100.00 
                                        mask[0-31]           1           1      100.00 
                                    word_addr[0-5]           1           1      100.00 

Total Node Count     =        145 
Toggled Node Count   =        144 
Untoggled Node Count =          1 

Toggle Coverage      =      99.31% (288 of 290 bins)

=================================================================================
=== Instance: /\top#DUT /sva_inst
=== Design Unit: work.APB4_sva
=================================================================================

Assertion Coverage:
    Assertions                       9         9         0   100.00%
--------------------------------------------------------------------
Name                 File(Line)                   Failure      Pass 
                                                  Count        Count
--------------------------------------------------------------------
/\top#DUT /sva_inst/assert__PSEL1_property
                     ../UVM/APB4_sva.sv(75)             0          1
/\top#DUT /sva_inst/assert__PSEL0_property
                     ../UVM/APB4_sva.sv(68)             0          1
/\top#DUT /sva_inst/assert__Read_Ready_property
                     ../UVM/APB4_sva.sv(61)             0          1
/\top#DUT /sva_inst/assert__Write_Ready_property
                     ../UVM/APB4_sva.sv(54)             0          1
/\top#DUT /sva_inst/assert__Ready_property
                     ../UVM/APB4_sva.sv(47)             0          1
/\top#DUT /sva_inst/assert__En_property
                     ../UVM/APB4_sva.sv(40)             0          1
/\top#DUT /sva_inst/assert__PSELx_property
                     ../UVM/APB4_sva.sv(33)             0          1
/\top#DUT /sva_inst/assert__PRESETn_property
                     ../UVM/APB4_sva.sv(24)             0          1
/\top#DUT /sva_inst/assert__SLVERR_property
                     ../UVM/APB4_sva.sv(79)             0          1
Branch Coverage:
    Enabled Coverage              Bins      Hits    Misses  Coverage
    ----------------              ----      ----    ------  --------
    Branches                         2         2         0   100.00%

================================Branch Details================================

Branch Coverage for instance /\top#DUT /sva_inst

    Line         Item                      Count     Source 
    ----         ----                      -----     ------ 
  File ../UVM/APB4_sva.sv
------------------------------------IF Branch------------------------------------
    23                                       943     Count coming in to IF
    23              1                         27     	if (!PRESETn) begin
                                             916     All False Count
Branch totals: 2 hits of 2 branches = 100.00%



Directive Coverage:
    Directives                       9         9         0   100.00%

DIRECTIVE COVERAGE:
--------------------------------------------------------------------------------------------
Name                                     Design Design   Lang File(Line)      Hits Status    
                                         Unit   UnitType                                     
--------------------------------------------------------------------------------------------
/\top#DUT /sva_inst/cover__PSEL1_property 
                                         APB4_sva Verilog  SVA  ../UVM/APB4_sva.sv(76)
                                                                               117 Covered   
/\top#DUT /sva_inst/cover__PSEL0_property 
                                         APB4_sva Verilog  SVA  ../UVM/APB4_sva.sv(69)
                                                                               119 Covered   
/\top#DUT /sva_inst/cover__Read_Ready_property 
                                         APB4_sva Verilog  SVA  ../UVM/APB4_sva.sv(62)
                                                                                16 Covered   
/\top#DUT /sva_inst/cover__Write_Ready_property 
                                         APB4_sva Verilog  SVA  ../UVM/APB4_sva.sv(55)
                                                                                21 Covered   
/\top#DUT /sva_inst/cover__Ready_property 
                                         APB4_sva Verilog  SVA  ../UVM/APB4_sva.sv(48)
                                                                                26 Covered   
/\top#DUT /sva_inst/cover__En_property   APB4_sva Verilog  SVA  ../UVM/APB4_sva.sv(41)
                                                                               122 Covered   
/\top#DUT /sva_inst/cover__PSELx_property 
                                         APB4_sva Verilog  SVA  ../UVM/APB4_sva.sv(34)
                                                                               245 Covered   
/\top#DUT /sva_inst/cover__PRESETn_property 
                                         APB4_sva Verilog  SVA  ../UVM/APB4_sva.sv(25)
                                                                                18 Covered   
/\top#DUT /sva_inst/cover__SLVERR_property 
                                         APB4_sva Verilog  SVA  ../UVM/APB4_sva.sv(80)
                                                                                 1 Covered   
Statement Coverage:
    Enabled Coverage              Bins      Hits    Misses  Coverage
    ----------------              ----      ----    ------  --------
    Statements                       2         2         0   100.00%

================================Statement Details================================

Statement Coverage for instance /\top#DUT /sva_inst --

    Line         Item                      Count     Source 
    ----         ----                      -----     ------ 
  File ../UVM/APB4_sva.sv
    1                                                module APB4_sva #(
    2                                                	parameter  DATA_WIDTH = 32,
    3                                                	parameter  ADDR_WIDTH = 32,
    4                                                	parameter  MEM_DEPTH  = 64,
    5                                                	localparam STRB_WIDTH = DATA_WIDTH/8
    6                                                ) (
    7                                                	input       logic                               PCLK,
    8                                                	input       logic                               PRESETn,
    9                                                	input       logic                               TRANSFER,
    10                                               	input       logic                               WRITE,
    11                                               	input       logic       [ADDR_WIDTH-1:0]        ADDR,
    12                                               	input       logic       [DATA_WIDTH-1:0]        WDATA,
    13                                               	input       logic       [STRB_WIDTH-1:0]        STRB,
    14                                               	input       logic                               READY,
    15                                               	input       logic       [DATA_WIDTH-1:0]		RDATA,
    16                                               	input       logic                               SLVERR,
    17                                               	input		logic                  			    PSEL0, 
    18                                               	input		logic                  			    PSEL1, 
    19                                               	input		logic                  			    PENABLE
    20                                               );
    21                                               
    22              1                        943     always_comb begin
    23                                               	if (!PRESETn) begin
    24                                               		assert__PRESETn_property : assert final ((~RDATA) && (!READY) && (!SLVERR));
    25                                               		cover__PRESETn_property  : cover  final ((~RDATA) && (!READY) && (!SLVERR));
    26                                               	end
    27                                               end
    28                                               
    29                                               property PSELx_property;
    30                                                   @(posedge PCLK) disable iff(!PRESETn) $rose(TRANSFER) |=> (PSEL0 || PSEL1);
    31                                               endproperty
    32                                               
    33                                               assert property (PSELx_property);
    34                                               cover property (PSELx_property);
    35                                               
    36                                               property En_property;
    37                                                   @(posedge PCLK) disable iff(!PRESETn) ($rose(TRANSFER) ##1 ($rose(PSEL0) || $rose(PSEL1))) |=> ($rose(PENABLE) || PENABLE);
    38                                               endproperty
    39                                               
    40                                               assert property (En_property);
    41                                               cover property (En_property);
    42                                               
    43                                               property Ready_property;
    44                                                   @(posedge PCLK) disable iff(!PRESETn) ($rose(TRANSFER) ##1 ($rose(PSEL0) || $rose(PSEL1)) ##1 $rose(PENABLE) ##1 $rose(READY)) |=> $fell(READY) [->1];
    45                                               endproperty
    46                                               
    47                                               assert property (Ready_property);
    48                                               cover property (Ready_property);
    49                                               
    50                                               property Write_Ready_property;
    51                                                   @(posedge PCLK) disable iff(!PRESETn) ($rose(TRANSFER) ##1 $rose(WRITE) ##2 $rose(READY)) |=> $fell(READY) [->1];
    52                                               endproperty
    53                                               
    54                                               assert property (Write_Ready_property);
    55                                               cover property (Write_Ready_property);
    56                                               
    57                                               property Read_Ready_property;
    58                                                   @(posedge PCLK) disable iff(!PRESETn) ($rose(TRANSFER) ##1 $fell(WRITE) ##2 $rose(READY)) |=> $fell(READY) [->1];
    59                                               endproperty
    60                                               
    61                                               assert property (Read_Ready_property);
    62                                               cover property (Read_Ready_property);
    63                                               
    64                                               property PSEL0_property;
    65                                               	@(posedge PCLK) disable iff(!PRESETn) ($rose(TRANSFER) && !ADDR[ADDR_WIDTH-1]) |=> $rose(PSEL0) [->1];
    66                                               endproperty
    67                                               
    68                                               assert property (PSEL0_property);
    69                                               cover property (PSEL0_property);
    70                                               
    71                                               property PSEL1_property;
    72                                               	@(posedge PCLK) disable iff(!PRESETn) ($rose(TRANSFER) && ADDR[ADDR_WIDTH-1]) |=> $rose(PSEL1) [->1];
    73                                               endproperty
    74                                               
    75                                               assert property (PSEL1_property);
    76                                               cover property (PSEL1_property);
    77                                               
    78              1                          1     always @(*) begin

Toggle Coverage:
    Enabled Coverage              Bins      Hits    Misses  Coverage
