Coverage Report by instance with details

=================================================================================
=== Instance: /\top#DUT /apb4_master_bridge
=== Design Unit: work.APB4_MASTER_BRIDGE
=================================================================================
Branch Coverage:
    Enabled Coverage              Bins      Hits    Misses  Coverage
    ----------------              ----      ----    ------  --------
    Branches                        19        19         0   100.00%

================================Branch Details================================

Branch Coverage for instance /\top#DUT /apb4_master_bridge

    Line         Item                      Count     Source 
    ----         ----                      -----     ------ 
  File ../RTL/APB4_MASTER_BRIDGE.v
------------------------------------IF Branch------------------------------------
    42                                       972     Count coming in to IF
    42              1                         22         if (!PRESETn)
    44              1                        950         else
Branch totals: 2 hits of 2 branches = 100.00%

------------------------------------CASE Branch------------------------------------
    49                                      1812     Count coming in to CASE
    50              1                        234             IDLE : begin
    57              1                        387             SETUP : ns = ACCESS;
    59              1                       1189             ACCESS : begin
    67              1                          2             default : ns = IDLE;
Branch totals: 4 hits of 4 branches = 100.00%

------------------------------------IF Branch------------------------------------
    51                                       234     Count coming in to IF
    51              1                        100                 if (TRANSFER)
    53              1                        134                 else
Branch totals: 2 hits of 2 branches = 100.00%

------------------------------------IF Branch------------------------------------
    60                                      1189     Count coming in to IF
    60              1                        536                 if (!PREADY_DECODER)
    62              1                        378                 else if (TRANSFER)
    64              1                        275                 else
Branch totals: 3 hits of 3 branches = 100.00%

------------------------------------CASE Branch------------------------------------
    72                                      1515     Count coming in to CASE
    73              1                        258             IDLE : begin
    81              1                        427             SETUP : begin
    89              1                        829             ACCESS : begin
    97              1                          1             default : begin
Branch totals: 4 hits of 4 branches = 100.00%

------------------------------------IF Branch------------------------------------
    85                                       427     Count coming in to IF
    85              1                        261                 PSTRB   = (PWRITE_BUS)? PSTRB_BUS : 0;
    85              2                        166                 PSTRB   = (PWRITE_BUS)? PSTRB_BUS : 0;
Branch totals: 2 hits of 2 branches = 100.00%

------------------------------------IF Branch------------------------------------
    93                                       829     Count coming in to IF
    93              1                        513                 PSTRB   = (PWRITE_BUS)? PSTRB_BUS : 0;
    93              2                        316                 PSTRB   = (PWRITE_BUS)? PSTRB_BUS : 0;
Branch totals: 2 hits of 2 branches = 100.00%


FSM Coverage:
    Enabled Coverage              Bins      Hits    Misses  Coverage
    ----------------              ----      ----    ------  --------
    FSM States                       3         3         0   100.00%
    FSM Transitions                  5         5         0   100.00%

================================FSM Details================================

FSM Coverage for instance /\top#DUT /apb4_master_bridge --

FSM_ID: cs
    Current State Object : cs
    ----------------------
    State Value MapInfo :
    ---------------------
Line          State Name               Value
----          ----------               -----
  50                IDLE                   0
  57               SETUP                   1
  59              ACCESS                   2
    Covered States :
    ----------------
                   State           Hit_count
                   -----           ---------
                    IDLE                 137          
                   SETUP                 214          
                  ACCESS                 620          
    Covered Transitions :
    ---------------------
Line            Trans_ID           Hit_count          Transition          
----            --------           ---------          ----------          
  52                   0                  92          IDLE -> SETUP                 
  57                   1                 211          SETUP -> ACCESS               
  43                   2                   3          SETUP -> IDLE                 
  65                   3                  88          ACCESS -> IDLE                
  63                   4                 122          ACCESS -> SETUP               


    Summary                       Bins      Hits    Misses  Coverage
    -------                       ----      ----    ------  --------
        FSM States                   3         3         0   100.00%
        FSM Transitions              5         5         0   100.00%
Statement Coverage:
    Enabled Coverage              Bins      Hits    Misses  Coverage
    ----------------              ----      ----    ------  --------
    Statements                      36        36         0   100.00%

================================Statement Details================================

Statement Coverage for instance /\top#DUT /apb4_master_bridge --

    Line         Item                      Count     Source 
    ----         ----                      -----     ------ 
  File ../RTL/APB4_MASTER_BRIDGE.v
    5                                                module APB4_MASTER_BRIDGE #(
    6                                                    parameter  DATA_WIDTH = 32,
    7                                                    parameter  ADDR_WIDTH = 32,
    8                                                    localparam STRB_WIDTH = DATA_WIDTH/8
    9                                                ) (
    10                                                   input       wire                                PCLK,
    11                                                   input       wire                                PRESETn,
    12                                                   input       wire                                TRANSFER,
    13                                                   input       wire        [ADDR_WIDTH-1:0]        PADDR_BUS,
    14                                                   input       wire                                PWRITE_BUS,
    15                                                   input       wire        [DATA_WIDTH-1:0]        PWDATA_BUS,
    16                                                   input       wire        [STRB_WIDTH-1:0]        PSTRB_BUS,
    17                                                   input       wire                                PREADY_DECODER,
    18                                                   input       wire        [DATA_WIDTH-1:0]        PRDATA_DECODER,
    19                                                   input       wire                                PSLVERR_DECODER,
    20                                                   output      reg         [ADDR_WIDTH-1:0]        PADDR,
    21                                                   output      reg                                 PWRITE,
    22                                                   output      reg         [DATA_WIDTH-1:0]        PWDATA,
    23                                                   output      reg         [STRB_WIDTH-1:0]        PSTRB,
    24                                                   output      reg                                 PSELx,
    25                                                   output      reg                                 PENABLE,
    26                                                   output      wire                                PREADY,
    27                                                   output      wire        [DATA_WIDTH-1:0]        PRDATA,
    28                                                   output      wire                                PSLVERR
    29                                               );
    30                                               
    31                                               localparam  IDLE   = 2'b00,
    32                                                           SETUP  = 2'b01,
    33                                                           ACCESS = 2'b10;
    34                                               
    35                                               reg [1:0] cs, ns;
    36                                               
    37                                               assign PREADY  = PREADY_DECODER;
    38                                               assign PRDATA  = PRDATA_DECODER;
    39                                               assign PSLVERR = PSLVERR_DECODER;
    40                                               
    41              1                        972     always @(posedge PCLK) begin
    42                                                   if (!PRESETn)
    43              1                         22             cs <= IDLE;
    44                                                   else
    45              1                        950             cs <= ns;
    46                                               end
    47                                               
    48              1                       1812     always @(*) begin
    49                                                   case (cs)
    50                                                       IDLE : begin
    51                                                           if (TRANSFER)
    52              1                        100                     ns = SETUP;
    53                                                           else
    54              1                        134                     ns = IDLE;
    55                                                       end
    56                                               
    57              1                        387             SETUP : ns = ACCESS;
    58                                               
    59                                                       ACCESS : begin
    60                                                           if (!PREADY_DECODER)
    61              1                        536                     ns = ACCESS;
    62                                                           else if (TRANSFER)
    63              1                        378                     ns = SETUP;
    64                                                           else
    65              1                        275                     ns = IDLE;
    66                                                       end
    67              1                          2             default : ns = IDLE;
    68                                                   endcase
    69                                               end
    70                                               
    71              1                       1515     always @(*) begin
    72                                                   case (cs)
    73                                                       IDLE : begin
    74              1                        258                 PADDR   = 0;
    75              1                        258                 PWRITE  = 0;
    76              1                        258                 PWDATA  = 0;
    77              1                        258                 PSTRB   = 0;
    78              1                        258                 PSELx   = 0;
    79              1                        258                 PENABLE = 0;
    80                                                       end
    81                                                       SETUP : begin
    82              1                        427                 PADDR   = PADDR_BUS;
    83              1                        427                 PWRITE  = PWRITE_BUS;
    84              1                        427                 PWDATA  = PWDATA_BUS;
    85              1                        427                 PSTRB   = (PWRITE_BUS)? PSTRB_BUS : 0;
    86              1                        427                 PSELx   = PADDR_BUS[ADDR_WIDTH-1];
    87              1                        427                 PENABLE = 0;
    88                                                       end
    89                                                       ACCESS : begin
    90              1                        829                 PADDR   = PADDR_BUS;
    91              1                        829                 PWRITE  = PWRITE_BUS;
    92              1                        829                 PWDATA  = PWDATA_BUS;
    93              1                        829                 PSTRB   = (PWRITE_BUS)? PSTRB_BUS : 0;
    94              1                        829                 PSELx   = PADDR_BUS[ADDR_WIDTH-1];
    95              1                        829                 PENABLE = 1;
    96                                                       end
    97                                                       default : begin
    98              1                          1                 PADDR   = 0;
    99              1                          1                 PWRITE  = 0;
    100             1                          1                 PWDATA  = 0;
    101             1                          1                 PSTRB   = 0;
    102             1                          1                 PSELx   = 0;
    103             1                          1                 PENABLE = 0;

Toggle Coverage:
    Enabled Coverage              Bins      Hits    Misses  Coverage
    ----------------              ----      ----    ------  --------
    Toggles                        430       426         4    99.06%

================================Toggle Details================================

Toggle Coverage for instance /\top#DUT /apb4_master_bridge --

                                              Node      1H->0L      0L->1H  "Coverage"
                                              ---------------------------------------
                                       PADDR[31-0]           1           1      100.00 
                                   PADDR_BUS[0-31]           1           1      100.00 
                                              PCLK           1           1      100.00 
                                           PENABLE           1           1      100.00 
                                      PRDATA[0-31]           1           1      100.00 
                              PRDATA_DECODER[0-31]           1           1      100.00 
                                            PREADY           1           1      100.00 
                                    PREADY_DECODER           1           1      100.00 
                                           PRESETn           1           1      100.00 
                                             PSELx           1           1      100.00 
                                           PSLVERR           0           0        0.00 
                                   PSLVERR_DECODER           0           0        0.00 
                                        PSTRB[3-0]           1           1      100.00 
                                    PSTRB_BUS[0-3]           1           1      100.00 
                                      PWDATA[31-0]           1           1      100.00 
                                  PWDATA_BUS[0-31]           1           1      100.00 
                                            PWRITE           1           1      100.00 
                                        PWRITE_BUS           1           1      100.00 
                                          TRANSFER           1           1      100.00 
                                           cs[1-0]           1           1      100.00 
                                           ns[1-0]           1           1      100.00 

Total Node Count     =        215 
Toggled Node Count   =        213 
Untoggled Node Count =          2 

Toggle Coverage      =      99.06% (426 of 430 bins)

=================================================================================
=== Instance: /\top#DUT /apb4_decoder
=== Design Unit: work.APB4_DECODER
=================================================================================
Branch Coverage:
    Enabled Coverage              Bins      Hits    Misses  Coverage
    ----------------              ----      ----    ------  --------
    Branches                         3         3         0   100.00%

================================Branch Details================================

Branch Coverage for instance /\top#DUT /apb4_decoder

    Line         Item                      Count     Source 
    ----         ----                      -----     ------ 
  File ../RTL/APB4_DECODER.v
------------------------------------CASE Branch------------------------------------
    23                                      1386     Count coming in to CASE
    24              1                        605             1'b0 : begin
    31              1                        779             1'b1 : begin
    38              1                          2             default : begin
Branch totals: 3 hits of 3 branches = 100.00%


Statement Coverage:
    Enabled Coverage              Bins      Hits    Misses  Coverage
    ----------------              ----      ----    ------  --------
    Statements                      16        16         0   100.00%

================================Statement Details================================

Statement Coverage for instance /\top#DUT /apb4_decoder --

    Line         Item                      Count     Source 
    ----         ----                      -----     ------ 
  File ../RTL/APB4_DECODER.v
    5                                                module APB4_DECODER #(
    6                                                    parameter DATA_WIDTH = 32
    7                                                ) (
    8                                                    input       wire                                PSELx,
    9                                                    input       wire        [DATA_WIDTH-1:0]        PRDATA0,
    10                                                   input       wire        [DATA_WIDTH-1:0]        PRDATA1,
    11                                                   input       wire                                PREADY0,
    12                                                   input       wire                                PREADY1,
    13                                                   input       wire                                PSLVERR0,
    14                                                   input       wire                                PSLVERR1,
    15                                                   output      reg                                 PSEL0,
    16                                                   output      reg                                 PSEL1,
    17                                                   output      reg         [DATA_WIDTH-1:0]        PRDATA,
    18                                                   output      reg                                 PREADY,
    19                                                   output      reg                                 PSLVERR
    20                                               );
    21                                               
    22              1                       1386     always @(*) begin
    23                                                   case (PSELx)
    24                                                       1'b0 : begin
    25              1                        605                 PSEL0   = 1;
    26              1                        605                 PSEL1   = 0;
    27              1                        605                 PRDATA  = PRDATA0;
    28              1                        605                 PREADY  = PREADY0;
    29              1                        605                 PSLVERR = PSLVERR0;
    30                                                       end
    31                                                       1'b1 : begin
    32              1                        779                 PSEL0   = 0;
    33              1                        779                 PSEL1   = 1;
    34              1                        779                 PRDATA  = PRDATA1;
    35              1                        779                 PREADY  = PREADY1;
    36              1                        779                 PSLVERR = PSLVERR1;
    37                                                       end
    38                                                       default : begin
    39              1                          2                 PSEL0   = 0;
    40              1                          2                 PSEL1   = 0;
    41              1                          2                 PRDATA  = 0;
    42              1                          2                 PREADY  = 0;
    43              1                          2                 PSLVERR = 0;

Toggle Coverage:
    Enabled Coverage              Bins      Hits    Misses  Coverage
    ----------------              ----      ----    ------  --------
    Toggles                        210       204         6    97.14%

================================Toggle Details================================

Toggle Coverage for instance /\top#DUT /apb4_decoder --

                                              Node      1H->0L      0L->1H  "Coverage"
                                              ---------------------------------------
                                      PRDATA[31-0]           1           1      100.00 
                                     PRDATA0[0-31]           1           1      100.00 
                                     PRDATA1[0-31]           1           1      100.00 
                                            PREADY           1           1      100.00 
                                           PREADY0           1           1      100.00 
                                           PREADY1           1           1      100.00 
                                             PSEL0           1           1      100.00 
                                             PSEL1           1           1      100.00 
                                             PSELx           1           1      100.00 
                                           PSLVERR           0           0        0.00 
                                          PSLVERR0           0           0        0.00 
                                          PSLVERR1           0           0        0.00 

Total Node Count     =        105 
Toggled Node Count   =        102 
Untoggled Node Count =          3 

Toggle Coverage      =      97.14% (204 of 210 bins)

=================================================================================
=== Instance: /\top#DUT /apb4_regfile_slv0
=== Design Unit: work.APB4_REGFILE_SLV0
=================================================================================
Branch Coverage:
    Enabled Coverage              Bins      Hits    Misses  Coverage
    ----------------              ----      ----    ------  --------
    Branches                        44        42         2    95.45%

================================Branch Details================================

Branch Coverage for instance /\top#DUT /apb4_regfile_slv0

    Line         Item                      Count     Source 
    ----         ----                      -----     ------ 
  File ../RTL/APB4_REGFILE_SLV0.v
------------------------------------IF Branch------------------------------------
    50                                      1825     Count coming in to IF
    50              1                        544         if (PSEL0 && PENABLE) begin
    56              1                       1281         else begin
Branch totals: 2 hits of 2 branches = 100.00%

------------------------------------IF Branch------------------------------------
    51                                       544     Count coming in to IF
    51              1                        111             if ((PADDR % 4) != 0)
    53              1                        433             else
Branch totals: 2 hits of 2 branches = 100.00%

------------------------------------IF Branch------------------------------------
    62                                       953     Count coming in to IF
    62              1                         22         if (!PRESETn) begin
    66              1                        931         else begin
Branch totals: 2 hits of 2 branches = 100.00%

------------------------------------IF Branch------------------------------------
    67                                       931     Count coming in to IF
    67              1                        309             if (PSEL0 && PENABLE && ~PSLVERR) begin
    112             1                        622             else begin
Branch totals: 2 hits of 2 branches = 100.00%

------------------------------------IF Branch------------------------------------
    69                                       309     Count coming in to IF
    69              1                        191                 if (PWRITE) begin
    90              1                        118                 else begin
Branch totals: 2 hits of 2 branches = 100.00%

------------------------------------CASE Branch------------------------------------
    70                                       191     Count coming in to CASE
    71              1                          6                         32'h0000_0000: SYS_STATUS_REG	<= (SYS_STATUS_REG   &	~mask) | (PWDATA & mask);
    72              1                         13                         32'h0000_0004: INT_CTRL_REG		<= (INT_CTRL_REG     &	~mask) | (PWDATA & mask);
    73              1                         12                         32'h0000_0008: DEV_ID_REG		<= (DEV_ID_REG       &	~mask) | (PWDATA & mask);
    74              1                         14                         32'h0000_000c: MEM_CTRL_REG		<= (MEM_CTRL_REG     &	~mask) | (PWDATA & mask);
    75              1                         14                         32'h0000_0010: TEMP_SENSOR_REG	<= (TEMP_SENSOR_REG  &	~mask) | (PWDATA & mask);
    76              1                         10                         32'h0000_0014: ADC_CTRL_REG		<= (ADC_CTRL_REG     &	~mask) | (PWDATA & mask);
    77              1                         16                         32'h0000_0018: DBG_CTRL_REG		<= (DBG_CTRL_REG     &	~mask) | (PWDATA & mask);
    78              1                         14                         32'h0000_001c: GPIO_DATA_REG	<= (GPIO_DATA_REG    &	~mask) | (PWDATA & mask);
    79              1                         12                         32'h0000_0020: DAC_OUTPUT_REG	<= (DAC_OUTPUT_REG   &	~mask) | (PWDATA & mask);
    80              1                         18                         32'h0000_0024: VOLTAGE_CTRL_REG	<= (VOLTAGE_CTRL_REG &	~mask) | (PWDATA & mask);
    81              1                          8                         32'h0000_0028: CLK_CONFIG_REG	<= (CLK_CONFIG_REG   &	~mask) | (PWDATA & mask);
    82              1                         11                         32'h0000_002c: TIMER_COUNT_REG	<= (TIMER_COUNT_REG  &	~mask) | (PWDATA & mask);
    83              1                         12                         32'h0000_0030: INPUT_DATA_REG	<= (INPUT_DATA_REG   &	~mask) | (PWDATA & mask);
    84              1                          7                         32'h0000_0034: OUTPUT_DATA_REG	<= (OUTPUT_DATA_REG  &	~mask) | (PWDATA & mask);
    85              1                         14                         32'h0000_0038: DMA_CTRL_REG		<= (DMA_CTRL_REG     &	~mask) | (PWDATA & mask);
    86              1                         10                         32'h0000_003c: SYS_CTRL_REG		<= (SYS_CTRL_REG     &	~mask) | (PWDATA & mask);
    87              1                    ***0***                         default : ;
Branch totals: 16 hits of 17 branches = 94.11%

------------------------------------CASE Branch------------------------------------
    91                                       118     Count coming in to CASE
    92              1                          4                         32'h0000_0000: PRDATA <= SYS_STATUS_REG;
    93              1                          6                         32'h0000_0004: PRDATA <= INT_CTRL_REG;
    94              1                          7                         32'h0000_0008: PRDATA <= DEV_ID_REG;
    95              1                         15                         32'h0000_000c: PRDATA <= MEM_CTRL_REG;
    96              1                          7                         32'h0000_0010: PRDATA <= TEMP_SENSOR_REG;
    97              1                          4                         32'h0000_0014: PRDATA <= ADC_CTRL_REG;
    98              1                         10                         32'h0000_0018: PRDATA <= DBG_CTRL_REG;
    99              1                          8                         32'h0000_001c: PRDATA <= GPIO_DATA_REG;
    100             1                          8                         32'h0000_0020: PRDATA <= DAC_OUTPUT_REG;
    101             1                          8                         32'h0000_0024: PRDATA <= VOLTAGE_CTRL_REG;
    102             1                          6                         32'h0000_0028: PRDATA <= CLK_CONFIG_REG;
    103             1                         11                         32'h0000_002c: PRDATA <= TIMER_COUNT_REG;
    104             1                         12                         32'h0000_0030: PRDATA <= INPUT_DATA_REG;
    105             1                          4                         32'h0000_0034: PRDATA <= OUTPUT_DATA_REG;
    106             1                          2                         32'h0000_0038: PRDATA <= DMA_CTRL_REG;
    107             1                          6                         32'h0000_003c: PRDATA <= SYS_CTRL_REG;
    108             1                    ***0***                         default : ;
Branch totals: 16 hits of 17 branches = 94.11%


Condition Coverage:
    Enabled Coverage              Bins   Covered    Misses  Coverage
    ----------------              ----      ----    ------  --------
    Conditions                       6         5         1    83.33%

================================Condition Details================================

Condition Coverage for instance /\top#DUT /apb4_regfile_slv0 --

  File ../RTL/APB4_REGFILE_SLV0.v
----------------Focused Condition View-------------------
Line       50 Item    1  (PSEL0 && PENABLE)
Condition totals: 2 of 2 input terms covered = 100.00%

  Input Term   Covered  Reason for no coverage   Hint
 -----------  --------  -----------------------  --------------
       PSEL0         Y
     PENABLE         Y

     Rows:       Hits  FEC Target            Non-masking condition(s)      
 ---------  ---------  --------------------  -------------------------     
  Row   1:          1  PSEL0_0               -                             
  Row   2:          1  PSEL0_1               PENABLE                       
  Row   3:          1  PENABLE_0             PSEL0                         
  Row   4:          1  PENABLE_1             PSEL0                         

----------------Focused Condition View-------------------
Line       51 Item    1  ((PADDR % 4) != 0)
Condition totals: 1 of 1 input term covered = 100.00%

          Input Term   Covered  Reason for no coverage   Hint
         -----------  --------  -----------------------  --------------
  ((PADDR % 4) != 0)         Y

     Rows:       Hits  FEC Target            Non-masking condition(s)      
 ---------  ---------  --------------------  -------------------------     
  Row   1:          1  ((PADDR % 4) != 0)_0  -                             
  Row   2:          1  ((PADDR % 4) != 0)_1  -                             

----------------Focused Condition View-------------------
Line       67 Item    1  ((PSEL0 && PENABLE) && ~PSLVERR)
Condition totals: 2 of 3 input terms covered = 66.66%

  Input Term   Covered  Reason for no coverage   Hint
 -----------  --------  -----------------------  --------------
       PSEL0         Y
     PENABLE         Y
     PSLVERR         N  '_1' not hit             Hit '_1'

     Rows:       Hits  FEC Target            Non-masking condition(s)      
 ---------  ---------  --------------------  -------------------------     
  Row   1:          1  PSEL0_0               -                             
  Row   2:          1  PSEL0_1               (~PSLVERR && PENABLE)         
  Row   3:          1  PENABLE_0             PSEL0                         
  Row   4:          1  PENABLE_1             (~PSLVERR && PSEL0)           
  Row   5:          1  PSLVERR_0             (PSEL0 && PENABLE)            
  Row   6:    ***0***  PSLVERR_1             (PSEL0 && PENABLE)            


Statement Coverage:
    Enabled Coverage              Bins      Hits    Misses  Coverage
    ----------------              ----      ----    ------  --------
    Statements                      46        46         0   100.00%

================================Statement Details================================

Statement Coverage for instance /\top#DUT /apb4_regfile_slv0 --

    Line         Item                      Count     Source 
    ----         ----                      -----     ------ 
  File ../RTL/APB4_REGFILE_SLV0.v
    5                                                module APB4_REGFILE_SLV0 #(
    6                                                    parameter  DATA_WIDTH = 32,
    7                                                    parameter  ADDR_WIDTH = 32,
    8                                                    localparam STRB_WIDTH = DATA_WIDTH/8
    9                                                ) (
    10                                                   input       wire                                PCLK,
    11                                                   input       wire                                PRESETn,
    12                                                   input       wire        [ADDR_WIDTH-1:0]        PADDR,
    13                                                   input       wire                                PSEL0,
    14                                                   input       wire                                PENABLE,
    15                                                   input       wire                                PWRITE,
    16                                                   input       wire        [DATA_WIDTH-1:0]        PWDATA,
    17                                                   input       wire        [STRB_WIDTH-1:0]        PSTRB,
    18                                                   output      reg                                 PREADY,
    19                                                   output      reg         [DATA_WIDTH-1:0]        PRDATA,
    20                                                   output      reg                                 PSLVERR
    21                                               );
    22                                               
    23                                               reg [DATA_WIDTH-1:0] SYS_STATUS_REG;
    24                                               reg [DATA_WIDTH-1:0] INT_CTRL_REG;
    25                                               reg [DATA_WIDTH-1:0] DEV_ID_REG;
    26                                               reg [DATA_WIDTH-1:0] MEM_CTRL_REG;
    27                                               reg [DATA_WIDTH-1:0] TEMP_SENSOR_REG;
    28                                               reg [DATA_WIDTH-1:0] ADC_CTRL_REG;
    29                                               reg [DATA_WIDTH-1:0] DBG_CTRL_REG;
    30                                               reg [DATA_WIDTH-1:0] GPIO_DATA_REG;
    31                                               reg [DATA_WIDTH-1:0] DAC_OUTPUT_REG;
    32                                               reg [DATA_WIDTH-1:0] VOLTAGE_CTRL_REG;
    33                                               reg [DATA_WIDTH-1:0] CLK_CONFIG_REG;
    34                                               reg [DATA_WIDTH-1:0] TIMER_COUNT_REG;
    35                                               reg [DATA_WIDTH-1:0] INPUT_DATA_REG;
    36                                               reg [DATA_WIDTH-1:0] OUTPUT_DATA_REG;
    37                                               reg [DATA_WIDTH-1:0] DMA_CTRL_REG;
    38                                               reg [DATA_WIDTH-1:0] SYS_CTRL_REG;
    39                                               
    40                                               wire [DATA_WIDTH-1:0] mask;
    41                                               
    42                                               genvar  i;
    43                                               generate
    44                                                   for (i = 0 ; i < STRB_WIDTH ; i = i + 1) begin
    45       1 (GI=0)                        324             assign mask[i*8 +: 8] = {8{PSTRB[i]}};
    45       1 (GI=1)                        288     
    45       1 (GI=2)                        299     
    45       1 (GI=3)                        322     
    46                                                   end
    47                                               endgenerate
    48                                               
    49              1                       1825     always @(*) begin
    50                                                   if (PSEL0 && PENABLE) begin
    51                                                       if ((PADDR % 4) != 0)
    52              1                        111                 PSLVERR = 1;
    53                                                       else
    54              1                        433                 PSLVERR = 0;
    55                                                   end
    56                                                   else begin
    57              1                       1281             PSLVERR = 0;
    58                                                   end
    59                                               end
    60                                               
    61              1                        953     always @(posedge PCLK) begin
    62                                                   if (!PRESETn) begin
    63              1                         22             PREADY <= 0;
    64              1                         22             PRDATA <= 0;
    65                                                   end
    66                                                   else begin
    67                                                       if (PSEL0 && PENABLE && ~PSLVERR) begin
    68              1                        309                 PREADY <= 1;
    69                                                           if (PWRITE) begin
    70                                                               case (PADDR)
    71              1                          6                         32'h0000_0000: SYS_STATUS_REG	<= (SYS_STATUS_REG   &	~mask) | (PWDATA & mask);
    72              1                         13                         32'h0000_0004: INT_CTRL_REG		<= (INT_CTRL_REG     &	~mask) | (PWDATA & mask);
    73              1                         12                         32'h0000_0008: DEV_ID_REG		<= (DEV_ID_REG       &	~mask) | (PWDATA & mask);
    74              1                         14                         32'h0000_000c: MEM_CTRL_REG		<= (MEM_CTRL_REG     &	~mask) | (PWDATA & mask);
    75              1                         14                         32'h0000_0010: TEMP_SENSOR_REG	<= (TEMP_SENSOR_REG  &	~mask) | (PWDATA & mask);
    76              1                         10                         32'h0000_0014: ADC_CTRL_REG		<= (ADC_CTRL_REG     &	~mask) | (PWDATA & mask);
    77              1                         16                         32'h0000_0018: DBG_CTRL_REG		<= (DBG_CTRL_REG     &	~mask) | (PWDATA & mask);
    78              1                         14                         32'h0000_001c: GPIO_DATA_REG	<= (GPIO_DATA_REG    &	~mask) | (PWDATA & mask);
    79              1                         12                         32'h0000_0020: DAC_OUTPUT_REG	<= (DAC_OUTPUT_REG   &	~mask) | (PWDATA & mask);
    80              1                         18                         32'h0000_0024: VOLTAGE_CTRL_REG	<= (VOLTAGE_CTRL_REG &	~mask) | (PWDATA & mask);
    81              1                          8                         32'h0000_0028: CLK_CONFIG_REG	<= (CLK_CONFIG_REG   &	~mask) | (PWDATA & mask);
    82              1                         11                         32'h0000_002c: TIMER_COUNT_REG	<= (TIMER_COUNT_REG  &	~mask) | (PWDATA & mask);
    83              1                         12                         32'h0000_0030: INPUT_DATA_REG	<= (INPUT_DATA_REG   &	~mask) | (PWDATA & mask);
    84              1                          7                         32'h0000_0034: OUTPUT_DATA_REG	<= (OUTPUT_DATA_REG  &	~mask) | (PWDATA & mask);
    85              1                         14                         32'h0000_0038: DMA_CTRL_REG		<= (DMA_CTRL_REG     &	~mask) | (PWDATA & mask);
    86              1                         10                         32'h0000_003c: SYS_CTRL_REG		<= (SYS_CTRL_REG     &	~mask) | (PWDATA & mask);
    87                                                                   default : ;
    88                                                               endcase
    89                                                           end
    90                                                           else begin
    91                                                               case (PADDR)
    92              1                          4                         32'h0000_0000: PRDATA <= SYS_STATUS_REG;
    93              1                          6                         32'h0000_0004: PRDATA <= INT_CTRL_REG;
    94              1                          7                         32'h0000_0008: PRDATA <= DEV_ID_REG;
    95              1                         15                         32'h0000_000c: PRDATA <= MEM_CTRL_REG;
    96              1                          7                         32'h0000_0010: PRDATA <= TEMP_SENSOR_REG;
    97              1                          4                         32'h0000_0014: PRDATA <= ADC_CTRL_REG;
    98              1                         10                         32'h0000_0018: PRDATA <= DBG_CTRL_REG;
    99              1                          8                         32'h0000_001c: PRDATA <= GPIO_DATA_REG;
    100             1                          8                         32'h0000_0020: PRDATA <= DAC_OUTPUT_REG;
    101             1                          8                         32'h0000_0024: PRDATA <= VOLTAGE_CTRL_REG;
    102             1                          6                         32'h0000_0028: PRDATA <= CLK_CONFIG_REG;
    103             1                         11                         32'h0000_002c: PRDATA <= TIMER_COUNT_REG;
    104             1                         12                         32'h0000_0030: PRDATA <= INPUT_DATA_REG;
    105             1                          4                         32'h0000_0034: PRDATA <= OUTPUT_DATA_REG;
    106             1                          2                         32'h0000_0038: PRDATA <= DMA_CTRL_REG;
    107             1                          6                         32'h0000_003c: PRDATA <= SYS_CTRL_REG;
    108                                                                  default : ;
    109                                                              endcase
    110                                                          end
    111                                                      end
    112                                                      else begin
    113             1                        622                 PREADY <= 0;
    114             1                        622                 PRDATA <= 0;

Toggle Coverage:
    Enabled Coverage              Bins      Hits    Misses  Coverage
    ----------------              ----      ----    ------  --------
    Toggles                       1302       828       474    63.59%

================================Toggle Details================================

Toggle Coverage for instance /\top#DUT /apb4_regfile_slv0 --

                                              Node      1H->0L      0L->1H  "Coverage"
                                              ---------------------------------------
                                 ADC_CTRL_REG[0-3]           1           1      100.00 
                                 ADC_CTRL_REG[4-5]           1           0       50.00 
                                 ADC_CTRL_REG[6-7]           1           1      100.00 
                                ADC_CTRL_REG[8-15]           0           0        0.00 
                                  ADC_CTRL_REG[16]           1           1      100.00 
                                  ADC_CTRL_REG[17]           1           0       50.00 
                               ADC_CTRL_REG[18-19]           1           1      100.00 
                                  ADC_CTRL_REG[20]           1           0       50.00 
                                  ADC_CTRL_REG[21]           0           0        0.00 
                                  ADC_CTRL_REG[22]           1           1      100.00 
                                  ADC_CTRL_REG[23]           1           0       50.00 
                                  ADC_CTRL_REG[24]           0           0        0.00 
                                  ADC_CTRL_REG[25]           1           0       50.00 
                                  ADC_CTRL_REG[26]           0           0        0.00 
                                  ADC_CTRL_REG[27]           1           0       50.00 
                               ADC_CTRL_REG[28-29]           0           0        0.00 
                                  ADC_CTRL_REG[30]           1           0       50.00 
                                  ADC_CTRL_REG[31]           0           0        0.00 
                               CLK_CONFIG_REG[0-1]           0           1       50.00 
                               CLK_CONFIG_REG[2-6]           0           0        0.00 
                                 CLK_CONFIG_REG[7]           1           0       50.00 
                                 CLK_CONFIG_REG[8]           1           1      100.00 
                                 CLK_CONFIG_REG[9]           0           0        0.00 
                                CLK_CONFIG_REG[10]           1           1      100.00 
                                CLK_CONFIG_REG[11]           0           1       50.00 
                                CLK_CONFIG_REG[12]           1           1      100.00 
                                CLK_CONFIG_REG[13]           0           1       50.00 
                                CLK_CONFIG_REG[14]           0           0        0.00 
                                CLK_CONFIG_REG[15]           1           0       50.00 
                                CLK_CONFIG_REG[16]           0           0        0.00 
                             CLK_CONFIG_REG[17-19]           1           0       50.00 
                                CLK_CONFIG_REG[20]           0           0        0.00 
                                CLK_CONFIG_REG[21]           0           1       50.00 
                                CLK_CONFIG_REG[22]           0           0        0.00 
                                CLK_CONFIG_REG[23]           0           1       50.00 
                                CLK_CONFIG_REG[24]           0           0        0.00 
                             CLK_CONFIG_REG[25-26]           1           0       50.00 
                             CLK_CONFIG_REG[27-28]           0           1       50.00 
                             CLK_CONFIG_REG[29-30]           1           0       50.00 
                                CLK_CONFIG_REG[31]           0           0        0.00 
                                 DAC_OUTPUT_REG[0]           0           1       50.00 
                                 DAC_OUTPUT_REG[1]           0           0        0.00 
                                 DAC_OUTPUT_REG[2]           1           1      100.00 
                                 DAC_OUTPUT_REG[3]           0           0        0.00 
                                 DAC_OUTPUT_REG[4]           1           1      100.00 
                               DAC_OUTPUT_REG[5-6]           0           0        0.00 
                                 DAC_OUTPUT_REG[7]           1           1      100.00 
                                 DAC_OUTPUT_REG[8]           0           0        0.00 
                              DAC_OUTPUT_REG[9-10]           1           1      100.00 
                                DAC_OUTPUT_REG[11]           1           0       50.00 
                             DAC_OUTPUT_REG[12-14]           1           1      100.00 
                                DAC_OUTPUT_REG[15]           0           0        0.00 
                                DAC_OUTPUT_REG[16]           1           1      100.00 
                             DAC_OUTPUT_REG[17-18]           0           1       50.00 
                             DAC_OUTPUT_REG[19-22]           1           1      100.00 
                                DAC_OUTPUT_REG[23]           0           1       50.00 
                             DAC_OUTPUT_REG[24-27]           1           1      100.00 
                                DAC_OUTPUT_REG[28]           0           1       50.00 
                             DAC_OUTPUT_REG[29-31]           1           1      100.00 
                                 DBG_CTRL_REG[0-7]           1           1      100.00 
                                 DBG_CTRL_REG[8-9]           0           1       50.00 
                                  DBG_CTRL_REG[10]           1           1      100.00 
                                  DBG_CTRL_REG[11]           0           1       50.00 
                                  DBG_CTRL_REG[12]           0           0        0.00 
                               DBG_CTRL_REG[13-14]           0           1       50.00 
                                  DBG_CTRL_REG[15]           0           0        0.00 
                               DBG_CTRL_REG[16-17]           0           1       50.00 
                                  DBG_CTRL_REG[18]           1           0       50.00 
                               DBG_CTRL_REG[19-21]           1           1      100.00 
                                  DBG_CTRL_REG[22]           0           1       50.00 
                                  DBG_CTRL_REG[23]           1           1      100.00 
                                  DBG_CTRL_REG[24]           0           0        0.00 
                                  DBG_CTRL_REG[25]           0           1       50.00 
                               DBG_CTRL_REG[26-28]           1           1      100.00 
                                  DBG_CTRL_REG[29]           0           1       50.00 
                                  DBG_CTRL_REG[30]           0           0        0.00 
                                  DBG_CTRL_REG[31]           0           1       50.00 
                                     DEV_ID_REG[0]           1           0       50.00 
                                   DEV_ID_REG[1-4]           0           0        0.00 
                                   DEV_ID_REG[5-6]           1           0       50.00 
                                  DEV_ID_REG[7-15]           0           0        0.00 
                                    DEV_ID_REG[16]           1           0       50.00 
                                 DEV_ID_REG[17-18]           1           1      100.00 
                                    DEV_ID_REG[19]           1           0       50.00 
                                    DEV_ID_REG[20]           1           1      100.00 
                                    DEV_ID_REG[21]           1           0       50.00 
                                 DEV_ID_REG[22-31]           1           1      100.00 
                                 DMA_CTRL_REG[0-7]           0           0        0.00 
                                   DMA_CTRL_REG[8]           1           1      100.00 
                                   DMA_CTRL_REG[9]           0           1       50.00 
                                  DMA_CTRL_REG[10]           1           0       50.00 
                                  DMA_CTRL_REG[11]           0           0        0.00 
                                  DMA_CTRL_REG[12]           0           1       50.00 
                               DMA_CTRL_REG[13-16]           1           1      100.00 
                                  DMA_CTRL_REG[17]           0           0        0.00 
                               DMA_CTRL_REG[18-19]           1           1      100.00 
                                  DMA_CTRL_REG[20]           1           0       50.00 
                               DMA_CTRL_REG[21-26]           1           1      100.00 
                                  DMA_CTRL_REG[27]           0           1       50.00 
                               DMA_CTRL_REG[28-31]           1           1      100.00 
                               GPIO_DATA_REG[0-10]           1           1      100.00 
                                 GPIO_DATA_REG[11]           1           0       50.00 
                                 GPIO_DATA_REG[12]           1           1      100.00 
                                 GPIO_DATA_REG[13]           1           0       50.00 
                              GPIO_DATA_REG[14-15]           1           1      100.00 
                                 GPIO_DATA_REG[16]           0           0        0.00 
                              GPIO_DATA_REG[17-31]           1           1      100.00 
                               INPUT_DATA_REG[0-7]           0           0        0.00 
                                 INPUT_DATA_REG[8]           1           0       50.00 
                                 INPUT_DATA_REG[9]           0           0        0.00 
                                INPUT_DATA_REG[10]           1           0       50.00 
                                INPUT_DATA_REG[11]           0           0        0.00 
                                INPUT_DATA_REG[12]           1           0       50.00 
                             INPUT_DATA_REG[13-14]           0           0        0.00 
                                INPUT_DATA_REG[15]           1           0       50.00 
                             INPUT_DATA_REG[16-23]           0           0        0.00 
                                INPUT_DATA_REG[24]           1           1      100.00 
                                INPUT_DATA_REG[25]           0           1       50.00 
                                INPUT_DATA_REG[26]           1           1      100.00 
                             INPUT_DATA_REG[27-28]           0           1       50.00 
                             INPUT_DATA_REG[29-31]           1           1      100.00 
                                   INT_CTRL_REG[0]           1           1      100.00 
                                   INT_CTRL_REG[1]           0           1       50.00 
                                   INT_CTRL_REG[2]           1           1      100.00 
                                   INT_CTRL_REG[3]           0           1       50.00 
                                 INT_CTRL_REG[4-6]           1           1      100.00 
                                   INT_CTRL_REG[7]           1           0       50.00 
                                   INT_CTRL_REG[8]           1           1      100.00 
                                   INT_CTRL_REG[9]           0           1       50.00 
                               INT_CTRL_REG[10-11]           1           1      100.00 
                               INT_CTRL_REG[12-13]           0           1       50.00 
                                  INT_CTRL_REG[14]           0           0        0.00 
                                  INT_CTRL_REG[15]           1           1      100.00 
                               INT_CTRL_REG[16-23]           0           0        0.00 
                               INT_CTRL_REG[24-31]           1           1      100.00 
                                 MEM_CTRL_REG[0-1]           1           1      100.00 
                                 MEM_CTRL_REG[2-3]           0           0        0.00 
                                 MEM_CTRL_REG[4-5]           1           1      100.00 
                                   MEM_CTRL_REG[6]           0           1       50.00 
                                   MEM_CTRL_REG[7]           1           1      100.00 
                                MEM_CTRL_REG[8-10]           0           0        0.00 
                                  MEM_CTRL_REG[11]           1           1      100.00 
                                  MEM_CTRL_REG[12]           0           0        0.00 
                                  MEM_CTRL_REG[13]           1           1      100.00 
                                  MEM_CTRL_REG[14]           0           1       50.00 
                                  MEM_CTRL_REG[15]           1           1      100.00 
                               MEM_CTRL_REG[16-25]           0           0        0.00 
                                  MEM_CTRL_REG[26]           1           0       50.00 
                               MEM_CTRL_REG[27-28]           0           1       50.00 
                               MEM_CTRL_REG[29-30]           0           0        0.00 
                                  MEM_CTRL_REG[31]           1           0       50.00 
                                OUTPUT_DATA_REG[0]           1           0       50.00 
                              OUTPUT_DATA_REG[1-3]           0           0        0.00 
                              OUTPUT_DATA_REG[4-5]           1           0       50.00 
                              OUTPUT_DATA_REG[6-7]           0           0        0.00 
                              OUTPUT_DATA_REG[8-9]           0           1       50.00 
                               OUTPUT_DATA_REG[10]           0           0        0.00 
                               OUTPUT_DATA_REG[11]           1           0       50.00 
                            OUTPUT_DATA_REG[12-14]           0           0        0.00 
                               OUTPUT_DATA_REG[15]           1           0       50.00 
                               OUTPUT_DATA_REG[16]           0           0        0.00 
                               OUTPUT_DATA_REG[17]           0           1       50.00 
                            OUTPUT_DATA_REG[18-19]           1           1      100.00 
                               OUTPUT_DATA_REG[20]           1           0       50.00 
                               OUTPUT_DATA_REG[21]           0           0        0.00 
                               OUTPUT_DATA_REG[22]           1           0       50.00 
                            OUTPUT_DATA_REG[23-24]           1           1      100.00 
                               OUTPUT_DATA_REG[25]           1           0       50.00 
                               OUTPUT_DATA_REG[26]           0           1       50.00 
                               OUTPUT_DATA_REG[27]           1           0       50.00 
                               OUTPUT_DATA_REG[28]           1           1      100.00 
                               OUTPUT_DATA_REG[29]           0           0        0.00 
                            OUTPUT_DATA_REG[30-31]           1           1      100.00 
                                       PADDR[0-31]           1           1      100.00 
                                              PCLK           1           1      100.00 
                                           PENABLE           1           1      100.00 
                                      PRDATA[0-31]           1           1      100.00 
                                            PREADY           1           1      100.00 
                                           PRESETn           1           1      100.00 
                                             PSEL0           1           1      100.00 
                                           PSLVERR           0           0        0.00 
                                        PSTRB[0-3]           1           1      100.00 
                                      PWDATA[0-31]           1           1      100.00 
                                            PWRITE           1           1      100.00 
                                SYS_CTRL_REG[0-14]           1           1      100.00 
                                  SYS_CTRL_REG[15]           0           1       50.00 
                                  SYS_CTRL_REG[16]           1           1      100.00 
                                  SYS_CTRL_REG[17]           0           1       50.00 
                               SYS_CTRL_REG[18-23]           1           1      100.00 
                                  SYS_CTRL_REG[24]           0           1       50.00 
                               SYS_CTRL_REG[25-26]           1           1      100.00 
                                  SYS_CTRL_REG[27]           0           1       50.00 
                               SYS_CTRL_REG[28-31]           1           1      100.00 
                              SYS_STATUS_REG[0-11]           0           0        0.00 
                                SYS_STATUS_REG[12]           1           0       50.00 
                             SYS_STATUS_REG[13-23]           0           0        0.00 
                                SYS_STATUS_REG[24]           1           1      100.00 
                                SYS_STATUS_REG[25]           0           0        0.00 
                                SYS_STATUS_REG[26]           1           1      100.00 
                             SYS_STATUS_REG[27-29]           1           0       50.00 
                                SYS_STATUS_REG[30]           0           0        0.00 
                                SYS_STATUS_REG[31]           1           0       50.00 
                                TEMP_SENSOR_REG[0]           1           1      100.00 
                                TEMP_SENSOR_REG[1]           1           0       50.00 
                              TEMP_SENSOR_REG[2-4]           1           1      100.00 
                                TEMP_SENSOR_REG[5]           1           0       50.00 
                              TEMP_SENSOR_REG[6-7]           1           1      100.00 
                                TEMP_SENSOR_REG[8]           0           1       50.00 
                             TEMP_SENSOR_REG[9-12]           1           1      100.00 
                               TEMP_SENSOR_REG[13]           0           0        0.00 
                            TEMP_SENSOR_REG[14-21]           1           1      100.00 
                               TEMP_SENSOR_REG[22]           0           1       50.00 
                               TEMP_SENSOR_REG[23]           1           1      100.00 
                            TEMP_SENSOR_REG[24-25]           0           1       50.00 
                               TEMP_SENSOR_REG[26]           1           1      100.00 
                               TEMP_SENSOR_REG[27]           0           0        0.00 
                               TEMP_SENSOR_REG[28]           1           1      100.00 
                               TEMP_SENSOR_REG[29]           0           1       50.00 
                            TEMP_SENSOR_REG[30-31]           1           1      100.00 
                              TIMER_COUNT_REG[0-1]           1           0       50.00 
                                TIMER_COUNT_REG[2]           0           1       50.00 
                              TIMER_COUNT_REG[3-4]           1           0       50.00 
                              TIMER_COUNT_REG[5-7]           0           0        0.00 
                                TIMER_COUNT_REG[8]           1           1      100.00 
                             TIMER_COUNT_REG[9-10]           1           0       50.00 
                               TIMER_COUNT_REG[11]           0           1       50.00 
                               TIMER_COUNT_REG[12]           1           1      100.00 
                               TIMER_COUNT_REG[13]           1           0       50.00 
                               TIMER_COUNT_REG[14]           0           1       50.00 
                               TIMER_COUNT_REG[15]           1           1      100.00 
                            TIMER_COUNT_REG[16-31]           0           0        0.00 
                               VOLTAGE_CTRL_REG[0]           1           0       50.00 
                               VOLTAGE_CTRL_REG[1]           0           0        0.00 
                               VOLTAGE_CTRL_REG[2]           1           0       50.00 
                               VOLTAGE_CTRL_REG[3]           1           1      100.00 
                               VOLTAGE_CTRL_REG[4]           1           0       50.00 
                             VOLTAGE_CTRL_REG[5-6]           0           0        0.00 
                               VOLTAGE_CTRL_REG[7]           1           1      100.00 
                               VOLTAGE_CTRL_REG[8]           0           1       50.00 
                               VOLTAGE_CTRL_REG[9]           1           1      100.00 
                              VOLTAGE_CTRL_REG[10]           0           0        0.00 
                              VOLTAGE_CTRL_REG[11]           1           1      100.00 
                              VOLTAGE_CTRL_REG[12]           0           0        0.00 
                              VOLTAGE_CTRL_REG[13]           1           0       50.00 
                              VOLTAGE_CTRL_REG[14]           1           1      100.00 
                              VOLTAGE_CTRL_REG[15]           1           0       50.00 
                           VOLTAGE_CTRL_REG[16-19]           0           1       50.00 
                           VOLTAGE_CTRL_REG[20-23]           0           0        0.00 
                           VOLTAGE_CTRL_REG[24-31]           1           1      100.00 
                                        mask[0-31]           1           1      100.00 

Total Node Count     =        651 
Toggled Node Count   =        352 
Untoggled Node Count =        299 

Toggle Coverage      =      63.59% (828 of 1302 bins)

=================================================================================
=== Instance: /\top#DUT /apb4_mem_slv1
=== Design Unit: work.APB4_MEM_SLV1
=================================================================================
Branch Coverage:
    Enabled Coverage              Bins      Hits    Misses  Coverage
    ----------------              ----      ----    ------  --------
    Branches                        10         9         1    90.00%

================================Branch Details================================

Branch Coverage for instance /\top#DUT /apb4_mem_slv1

    Line         Item                      Count     Source 
    ----         ----                      -----     ------ 
  File ../RTL/APB4_MEM_SLV1.v
------------------------------------IF Branch------------------------------------
    38                                      1819     Count coming in to IF
    38              1                        574         if (PSEL1 && PENABLE) begin
    45              1                       1245         else begin
Branch totals: 2 hits of 2 branches = 100.00%

------------------------------------IF Branch------------------------------------
    40                                       574     Count coming in to IF
    40              1                    ***0***             if (word_addr > (MEM_DEPTH-1))
    42              1                        574             else
Branch totals: 1 hit of 2 branches = 50.00%

------------------------------------IF Branch------------------------------------
    52                                       938     Count coming in to IF
    52              1                         22         if (!PRESETn) begin
    56              1                        916         else begin
Branch totals: 2 hits of 2 branches = 100.00%

------------------------------------IF Branch------------------------------------
    57                                       916     Count coming in to IF
    57              1                        295             if (PSEL1 && PENABLE && ~PSLVERR) begin
    64              1                        621             else begin
Branch totals: 2 hits of 2 branches = 100.00%

------------------------------------IF Branch------------------------------------
    59                                       295     Count coming in to IF
    59              1                        185                 if (PWRITE)
    61              1                        110                 else
Branch totals: 2 hits of 2 branches = 100.00%


Condition Coverage:
    Enabled Coverage              Bins   Covered    Misses  Coverage
    ----------------              ----      ----    ------  --------
    Conditions                       6         4         2    66.66%

================================Condition Details================================

Condition Coverage for instance /\top#DUT /apb4_mem_slv1 --

  File ../RTL/APB4_MEM_SLV1.v
----------------Focused Condition View-------------------
Line       38 Item    1  (PSEL1 && PENABLE)
Condition totals: 2 of 2 input terms covered = 100.00%

  Input Term   Covered  Reason for no coverage   Hint
 -----------  --------  -----------------------  --------------
       PSEL1         Y
     PENABLE         Y

     Rows:       Hits  FEC Target            Non-masking condition(s)      
 ---------  ---------  --------------------  -------------------------     
  Row   1:          1  PSEL1_0               -                             
  Row   2:          1  PSEL1_1               PENABLE                       
  Row   3:          1  PENABLE_0             PSEL1                         
  Row   4:          1  PENABLE_1             PSEL1                         

----------------Focused Condition View-------------------
Line       40 Item    1  (word_addr > (64 - 1))
Condition totals: 0 of 1 input term covered = 0.00%

              Input Term   Covered  Reason for no coverage   Hint
             -----------  --------  -----------------------  --------------
  (word_addr > (64 - 1))         N  '_1' not hit             Hit '_1'

     Rows:       Hits  FEC Target                Non-masking condition(s)      
 ---------  ---------  --------------------      -------------------------     
  Row   1:          1  (word_addr > (64 - 1))_0  -                             
  Row   2:    ***0***  (word_addr > (64 - 1))_1  -                             

----------------Focused Condition View-------------------
Line       57 Item    1  ((PSEL1 && PENABLE) && ~PSLVERR)
Condition totals: 2 of 3 input terms covered = 66.66%

  Input Term   Covered  Reason for no coverage   Hint
 -----------  --------  -----------------------  --------------
       PSEL1         Y
     PENABLE         Y
     PSLVERR         N  '_1' not hit             Hit '_1'

     Rows:       Hits  FEC Target            Non-masking condition(s)      
 ---------  ---------  --------------------  -------------------------     
  Row   1:          1  PSEL1_0               -                             
  Row   2:          1  PSEL1_1               (~PSLVERR && PENABLE)         
  Row   3:          1  PENABLE_0             PSEL1                         
  Row   4:          1  PENABLE_1             (~PSLVERR && PSEL1)           
  Row   5:          1  PSLVERR_0             (PSEL1 && PENABLE)            
  Row   6:    ***0***  PSLVERR_1             (PSEL1 && PENABLE)            


Statement Coverage:
    Enabled Coverage              Bins      Hits    Misses  Coverage
    ----------------              ----      ----    ------  --------
    Statements                      18        17         1    94.44%

================================Statement Details================================

Statement Coverage for instance /\top#DUT /apb4_mem_slv1 --

    Line         Item                      Count     Source 
    ----         ----                      -----     ------ 
  File ../RTL/APB4_MEM_SLV1.v
    5                                                module APB4_MEM_SLV1 #(
    6                                                    parameter  DATA_WIDTH = 32,
    7                                                    parameter  ADDR_WIDTH = 32,
    8                                                    parameter  MEM_DEPTH  = 64,
    9                                                    localparam STRB_WIDTH = DATA_WIDTH/8,
    10                                                   localparam WORD_ADDR  = $clog2(MEM_DEPTH)
    11                                               ) (
    12                                                   input       wire                                PCLK,
    13                                                   input       wire                                PRESETn,
    14                                                   input       wire        [ADDR_WIDTH-1:0]        PADDR,
    15                                                   input       wire                                PSEL1,
    16                                                   input       wire                                PENABLE,
    17                                                   input       wire                                PWRITE,
    18                                                   input       wire        [DATA_WIDTH-1:0]        PWDATA,
    19                                                   input       wire        [STRB_WIDTH-1:0]        PSTRB,
    20                                                   output      reg                                 PREADY,
    21                                                   output      reg         [DATA_WIDTH-1:0]        PRDATA,
    22                                                   output      reg                                 PSLVERR
    23                                               );
    24                                               
    25                                               reg [DATA_WIDTH-1:0] MEM [MEM_DEPTH-1:0];
    26                                               
    27                                               reg [WORD_ADDR-1:0] word_addr;
    28                                               wire [DATA_WIDTH-1:0] mask;
    29                                               
    30                                               genvar i;
    31                                               generate
    32                                                   for (i = 0 ; i < STRB_WIDTH ; i = i + 1) begin
    33       1 (GI=0)                        324             assign mask[i*8 +: 8] = {8{PSTRB[i]}};
    33       1 (GI=1)                        288     
    33       1 (GI=2)                        299     
    33       1 (GI=3)                        322     
    34                                                   end
    35                                               endgenerate
    36                                               
    37              1                       1819     always @(*) begin
    38                                                   if (PSEL1 && PENABLE) begin
    39              1                        574             word_addr = PADDR[WORD_ADDR-1:0];
    40                                                       if (word_addr > (MEM_DEPTH-1))
    41              1                    ***0***                 PSLVERR = 1;
    42                                                       else
    43              1                        574                 PSLVERR = 0;
    44                                                   end
    45                                                   else begin
    46              1                       1245             word_addr = 0;
    47              1                       1245             PSLVERR = 0;
    48                                                   end
    49                                               end
    50                                               
    51              1                        938     always @(posedge PCLK) begin
    52                                                   if (!PRESETn) begin
    53              1                         22             PREADY <= 0;
    54              1                         22             PRDATA <= 0;
    55                                                   end
    56                                                   else begin
    57                                                       if (PSEL1 && PENABLE && ~PSLVERR) begin
    58              1                        295                 PREADY <= 1;
    59                                                           if (PWRITE)
    60              1                        185                     MEM[word_addr] <= (MEM[word_addr] & ~mask) | (PWDATA & mask);
    61                                                           else
    62              1                        110                     PRDATA <= MEM[word_addr];
    63                                                       end
    64                                                       else begin
    65              1                        621                 PREADY <= 0;
    66              1                        621                 PRDATA <= 0;

Toggle Coverage:
    Enabled Coverage              Bins      Hits    Misses  Coverage
    ----------------              ----      ----    ------  --------
    Toggles                        290       288         2    99.31%

================================Toggle Details================================

Toggle Coverage for instance /\top#DUT /apb4_mem_slv1 --

                                              Node      1H->0L      0L->1H  "Coverage"
                                              ---------------------------------------
                                       PADDR[0-31]           1           1      100.00 
                                              PCLK           1           1      100.00 
                                           PENABLE           1           1      100.00 
                                      PRDATA[0-31]           1           1      100.00 
                                            PREADY           1           1      100.00 
                                           PRESETn           1           1      100.00 
                                             PSEL1           1           1      100.00 
                                           PSLVERR           0           0        0.00 
                                        PSTRB[0-3]           1           1      100.00 
                                      PWDATA[0-31]           1           1      100.00 
                                            PWRITE           1           1      100.00 
                                        mask[0-31]           1           1      100.00 
                                    word_addr[0-5]           1           1      100.00 

Total Node Count     =        145 
Toggled Node Count   =        144 
Untoggled Node Count =          1 

Toggle Coverage      =      99.31% (288 of 290 bins)

=================================================================================
=== Instance: /\top#DUT /sva_inst
=== Design Unit: work.APB4_sva
=================================================================================

Assertion Coverage:
    Assertions                       9         9         0   100.00%
--------------------------------------------------------------------
Name                 File(Line)                   Failure      Pass 
                                                  Count        Count
--------------------------------------------------------------------
/\top#DUT /sva_inst/assert__PSEL1_property
                     ../UVM/APB4_sva.sv(75)             0          1
/\top#DUT /sva_inst/assert__PSEL0_property
                     ../UVM/APB4_sva.sv(68)             0          1
/\top#DUT /sva_inst/assert__Read_Ready_property
                     ../UVM/APB4_sva.sv(61)             0          1
/\top#DUT /sva_inst/assert__Write_Ready_property
                     ../UVM/APB4_sva.sv(54)             0          1
/\top#DUT /sva_inst/assert__Ready_property
                     ../UVM/APB4_sva.sv(47)             0          1
/\top#DUT /sva_inst/assert__En_property
                     ../UVM/APB4_sva.sv(40)             0          1
/\top#DUT /sva_inst/assert__PSELx_property
                     ../UVM/APB4_sva.sv(33)             0          1
/\top#DUT /sva_inst/assert__PRESETn_property
                     ../UVM/APB4_sva.sv(26)             0          1
/\top#DUT /sva_inst/assert__SLVERR_property
                     ../UVM/APB4_sva.sv(79)             0          1

Directive Coverage:
    Directives                       9         9         0   100.00%

DIRECTIVE COVERAGE:
--------------------------------------------------------------------------------------------
Name                                     Design Design   Lang File(Line)      Hits Status    
                                         Unit   UnitType                                     
--------------------------------------------------------------------------------------------
/\top#DUT /sva_inst/cover__PSEL1_property 
                                         APB4_sva Verilog  SVA  ../UVM/APB4_sva.sv(76)
                                                                               110 Covered   
/\top#DUT /sva_inst/cover__PSEL0_property 
                                         APB4_sva Verilog  SVA  ../UVM/APB4_sva.sv(69)
                                                                               101 Covered   
/\top#DUT /sva_inst/cover__Read_Ready_property 
                                         APB4_sva Verilog  SVA  ../UVM/APB4_sva.sv(62)
                                                                                14 Covered   
/\top#DUT /sva_inst/cover__Write_Ready_property 
                                         APB4_sva Verilog  SVA  ../UVM/APB4_sva.sv(55)
                                                                                13 Covered   
/\top#DUT /sva_inst/cover__Ready_property 
                                         APB4_sva Verilog  SVA  ../UVM/APB4_sva.sv(48)
                                                                                20 Covered   
/\top#DUT /sva_inst/cover__En_property   APB4_sva Verilog  SVA  ../UVM/APB4_sva.sv(41)
                                                                                98 Covered   
/\top#DUT /sva_inst/cover__PSELx_property 
                                         APB4_sva Verilog  SVA  ../UVM/APB4_sva.sv(34)
                                                                               228 Covered   
/\top#DUT /sva_inst/cover__PRESETn_property 
                                         APB4_sva Verilog  SVA  ../UVM/APB4_sva.sv(27)
                                                                                22 Covered   
/\top#DUT /sva_inst/cover__SLVERR_property 
                                         APB4_sva Verilog  SVA  ../UVM/APB4_sva.sv(80)
                                                                                 1 Covered   
Statement Coverage:
    Enabled Coverage              Bins      Hits    Misses  Coverage
    ----------------              ----      ----    ------  --------
    Statements                       1         1         0   100.00%

================================Statement Details================================

Statement Coverage for instance /\top#DUT /sva_inst --

    Line         Item                      Count     Source 
    ----         ----                      -----     ------ 
  File ../UVM/APB4_sva.sv
    1                                                module APB4_sva #(
    2                                                	parameter  DATA_WIDTH = 32,
    3                                                	parameter  ADDR_WIDTH = 32,
    4                                                	parameter  MEM_DEPTH  = 64,
    5                                                	localparam STRB_WIDTH = DATA_WIDTH/8
    6                                                ) (
    7                                                	input       logic                               PCLK,
    8                                                	input       logic                               PRESETn,
    9                                                	input       logic                               TRANSFER,
    10                                               	input       logic                               WRITE,
    11                                               	input       logic       [ADDR_WIDTH-1:0]        ADDR,
    12                                               	input       logic       [DATA_WIDTH-1:0]        WDATA,
    13                                               	input       logic       [STRB_WIDTH-1:0]        STRB,
    14                                               	input       logic                               READY,
    15                                               	input       logic       [DATA_WIDTH-1:0]		RDATA,
    16                                               	input       logic                               SLVERR,
    17                                               	input		logic                  			    PSEL0, 
    18                                               	input		logic                  			    PSEL1, 
    19                                               	input		logic                  			    PENABLE
    20                                               );
    21                                               
    22                                               property PRESETn_property;
    23                                                   @(posedge PCLK) (!PRESETn) |=> ((~RDATA) && (!READY) && (!SLVERR));
    24                                               endproperty
    25                                               
    26                                               assert property (PRESETn_property);
    27                                               cover property (PRESETn_property);
    28                                               
    29                                               property PSELx_property;
    30                                                   @(posedge PCLK) disable iff(!PRESETn) $rose(TRANSFER) |=> (PSEL0 || PSEL1);
    31                                               endproperty
    32                                               
    33                                               assert property (PSELx_property);
    34                                               cover property (PSELx_property);
    35                                               
    36                                               property En_property;
    37                                                   @(posedge PCLK) disable iff(!PRESETn) ($rose(TRANSFER) ##1 ($rose(PSEL0) || $rose(PSEL1))) |=> ($rose(PENABLE) || PENABLE);
    38                                               endproperty
    39                                               
    40                                               assert property (En_property);
    41                                               cover property (En_property);
    42                                               
    43                                               property Ready_property;
    44                                                   @(posedge PCLK) disable iff(!PRESETn) ($rose(TRANSFER) ##1 ($rose(PSEL0) || $rose(PSEL1)) ##1 $rose(PENABLE) ##1 $rose(READY)) |=> $fell(READY) [->1];
    45                                               endproperty
    46                                               
    47                                               assert property (Ready_property);
    48                                               cover property (Ready_property);
    49                                               
    50                                               property Write_Ready_property;
    51                                                   @(posedge PCLK) disable iff(!PRESETn) ($rose(TRANSFER) ##1 $rose(WRITE) ##2 $rose(READY)) |=> $fell(READY) [->1];
    52                                               endproperty
    53                                               
    54                                               assert property (Write_Ready_property);
    55                                               cover property (Write_Ready_property);
    56                                               
    57                                               property Read_Ready_property;
    58                                                   @(posedge PCLK) disable iff(!PRESETn) ($rose(TRANSFER) ##1 $fell(WRITE) ##2 $rose(READY)) |=> $fell(READY) [->1];
    59                                               endproperty
    60                                               
    61                                               assert property (Read_Ready_property);
    62                                               cover property (Read_Ready_property);
    63                                               
    64                                               property PSEL0_property;
    65                                               	@(posedge PCLK) disable iff(!PRESETn) ($rose(TRANSFER) && !ADDR[ADDR_WIDTH-1]) |=> $rose(PSEL0) [->1];
    66                                               endproperty
    67                                               
    68                                               assert property (PSEL0_property);
    69                                               cover property (PSEL0_property);
    70                                               
    71                                               property PSEL1_property;
    72                                               	@(posedge PCLK) disable iff(!PRESETn) ($rose(TRANSFER) && ADDR[ADDR_WIDTH-1]) |=> $rose(PSEL1) [->1];
    73                                               endproperty
    74                                               
    75                                               assert property (PSEL1_property);
    76                                               cover property (PSEL1_property);
    77                                               
    78              1                          1     always @(*) begin

Toggle Coverage:
    Enabled Coverage              Bins      Hits    Misses  Coverage
    ----------------              ----      ----    ------  --------
    Toggles                        218       216         2    99.08%

================================Toggle Details================================

Toggle Coverage for instance /\top#DUT /sva_inst --

                                              Node      1H->0L      0L->1H  "Coverage"
                                              ---------------------------------------
                                        ADDR[0-31]           1           1      100.00 
                                              PCLK           1           1      100.00 
                                           PENABLE           1           1      100.00 
                                           PRESETn           1           1      100.00 
                                             PSEL0           1           1      100.00 
                                             PSEL1           1           1      100.00 
                                       RDATA[0-31]           1           1      100.00 
                                             READY           1           1      100.00 
                                            SLVERR           0           0        0.00 
                                         STRB[0-3]           1           1      100.00 
                                          TRANSFER           1           1      100.00 
                                       WDATA[0-31]           1           1      100.00 
                                             WRITE           1           1      100.00 

Total Node Count     =        109 
Toggled Node Count   =        108 
Untoggled Node Count =          1 

Toggle Coverage      =      99.08% (216 of 218 bins)

=================================================================================
=== Instance: /\top#DUT 
=== Design Unit: work.APB4_BUS_WRAPPER
=================================================================================
Toggle Coverage:
    Enabled Coverage              Bins      Hits    Misses  Coverage
    ----------------              ----      ----    ------  --------
    Toggles                        562       554         8    98.57%

================================Toggle Details================================

Toggle Coverage for instance /\top#DUT  --

                                              Node      1H->0L      0L->1H  "Coverage"
                                              ---------------------------------------
                                        ADDR[0-31]           1           1      100.00 
                                       PADDR[0-31]           1           1      100.00 
                                              PCLK           1           1      100.00 
                                           PENABLE           1           1      100.00 
                                     PRDATA0[0-31]           1           1      100.00 
                                     PRDATA1[0-31]           1           1      100.00 
                              PRDATA_DECODER[0-31]           1           1      100.00 
                                           PREADY0           1           1      100.00 
                                           PREADY1           1           1      100.00 
                                    PREADY_DECODER           1           1      100.00 
                                           PRESETn           1           1      100.00 
                                             PSEL0           1           1      100.00 
                                             PSEL1           1           1      100.00 
                                             PSELx           1           1      100.00 
                                          PSLVERR0           0           0        0.00 
                                          PSLVERR1           0           0        0.00 
                                   PSLVERR_DECODER           0           0        0.00 
                                        PSTRB[0-3]           1           1      100.00 
                                      PWDATA[0-31]           1           1      100.00 
                                            PWRITE           1           1      100.00 
                                       RDATA[0-31]           1           1      100.00 
                                             READY           1           1      100.00 
                                            SLVERR           0           0        0.00 
                                         STRB[0-3]           1           1      100.00 
                                          TRANSFER           1           1      100.00 
                                       WDATA[0-31]           1           1      100.00 
                                             WRITE           1           1      100.00 

Total Node Count     =        281 
Toggled Node Count   =        277 
Untoggled Node Count =          4 

Toggle Coverage      =      98.57% (554 of 562 bins)


DIRECTIVE COVERAGE:
--------------------------------------------------------------------------------------------
Name                                     Design Design   Lang File(Line)      Hits Status    
                                         Unit   UnitType                                     
--------------------------------------------------------------------------------------------
/\top#DUT /sva_inst/cover__PSEL1_property 
